#  HZ   S   DB   R     50.00 
! Rohde & Schwarz Vector Network Analyzer 
! Rohde-Schwarz,ZNA43-2Port,1332450042101266,2.10
! Created: UTC 11/25/2021, 10:03:43 AM
! freq[Hz]                db:S11                  ang:S11                 db:S21                  ang:S21                 db:S12                  ang:S12                 db:S22                  ang:S22
 1.000000000000000E7    -1.598758094129528E1     2.854398309158358E1    -1.342654996581367      -3.680784926558401E1    -1.433347105676095      -3.813139405697129E1    -1.793804849850754E1     3.394947227886176E1
 8.495000000000000E7    -1.441632613222142E1    -1.365485261888033E1    -2.319679614635337       3.915182163475060E1    -2.422303967701583       3.903370147972068E1    -1.665136765595952E1    -6.560834031668067E1
 1.599000000000000E8    -1.106064111645926E1     8.784735059187955E1    -3.296241149507813       1.333111576676953E2    -3.361377810056650       1.340726358861531E2    -1.333226042359781E1     4.036409511854805E1
 2.348500000000000E8    -9.169574070037349      -3.872563884668475E1    -4.389703001533112      -1.372259277360955E2    -4.828174078255674      -1.368367957381088E2    -9.027309032404172      -9.247561739862338E1
 3.098000000000000E8    -1.042927779587732E1     1.549539219058877E2    -4.958953499464008      -4.368973815408371E1    -5.507149421288377      -4.148344863197147E1    -2.354779959965347E1    -4.575828727175736E1
 3.847500000000000E8    -8.867479079217521      -8.647566454860024E-1   -5.929689207284769       4.890277322739338E1    -6.358493412704358       4.581368340366777E1    -1.493659952330743E1    -7.751619446838713E1
 4.597000000000000E8    -7.793912133083691      -1.556882669997942E2    -7.049313229065898       1.387610990183126E2    -7.623819662314859       1.369888952263623E2    -1.156678723824010E1    -1.174156084572887E2
 5.346500000000000E8    -1.107781795796933E1     3.501629816066708E1    -6.915088910804139      -1.235677548364000E2    -6.982703194738757      -1.238754442592940E2    -1.394158174013900E1     2.500873236115535E1
 6.096000000000000E8    -1.032850086432606E1    -1.078764617534033E2    -7.694463386880655      -3.046437183765218E1    -8.023934634606778      -3.064957838371709E1    -1.194118014910371E1    -1.501456547463332E2
 6.845500000000000E8    -1.409300536248329E1     7.518746471288226E1    -7.877536418188851       6.602610559755632E1    -8.136471638542977       6.595142905702617E1    -1.745391993233849E1     1.224636881460897E1
 7.595000000000000E8    -1.539117868393089E1    -7.521057709364783E1    -8.437740426912981       1.575721959241160E2    -8.941808007146944       1.570007593059473E2    -1.635032164398614E1    -1.759348616412317E2
 8.344500000000000E8    -1.781096975523376E1     5.949637141342257E1    -8.954077661936829      -1.069810784554175E2    -9.331991717110599      -1.079395088887518E2    -1.793331840102899E1    -5.578641410961151E1
 9.094000000000000E8    -2.370806011555164E1    -1.566029750773740E2    -9.260642803512738      -1.460393655521766E1    -9.571256588972718      -1.514110916205246E1    -2.614617694447747E1     5.606368075955097E1
 9.843500000000000E8    -1.478433333921227E1     5.313429139842430E1    -9.995091660408535       7.804747769975694E1    -1.031748283275301E1     7.619131626202874E1    -2.143583075514471E1    -1.280635303337778E2
 1.059300000000000E9    -1.205568524186556E1    -1.340300605857506E2    -1.063356694700362E1     1.744539134541067E2    -1.102425319958080E1     1.726489564044145E2    -1.728485152712353E1    -3.281694969962668E1
 1.134250000000000E9    -1.173433490913640E1     6.397824385831268E1    -1.098828336151484E1    -9.097694112976384E1    -1.109805451067196E1    -9.312838101719838E1    -3.190515739926846E1     4.657148152226348E1
 1.209200000000000E9    -1.053475479902522E1    -8.587221137498601E1    -1.162495702883751E1     2.491212543479104      -1.174209671042309E1     1.775827949248040      -2.546322548001031E1    -1.321546874649880E2
 1.284150000000000E9    -8.837485360865555       1.044235027914127E2    -1.241299842088727E1     9.895803580988557E1    -1.241181434794580E1     9.964942239463106E1    -1.864921709357933E1    -5.273782947188295E1
 1.359100000000000E9    -8.957028039520619      -5.548223166673897E1    -1.270791621520535E1    -1.635092812339663E2    -1.315543215430633E1    -1.637164800642518E2    -2.093243311144936E1    -1.583838599388442E2
 1.434050000000000E9    -1.068331654238276E1     1.334607550784477E2    -1.291545729598421E1    -6.608626139529311E1    -1.330035270590499E1    -6.706412471291222E1    -1.363235122266585E1    -1.813534302417307E1
 1.509000000000000E9    -1.088928272762430E1    -4.749359457320484      -1.314807544194452E1     2.771942630974210E1    -1.355268461414057E1     2.492971460877754E1    -1.564492860008474E1     1.664902621202387E2
 1.583950000000000E9    -1.225246444020007E1    -1.779880315373640E2    -1.352296045618194E1     1.261560351907439E2    -1.354804809652738E1     1.234006621236004E2    -1.617085165474612E1    -4.233715877152443E1
 1.658900000000000E9    -1.421039099517061E1     3.323686436840464E1    -1.351161113416405E1    -1.415557893647822E2    -1.358606863581421E1    -1.430931340687671E2    -2.568089054452997E1     6.390337175702523E1
 1.733850000000000E9    -1.316100278745954E1    -1.232912056467866E2    -1.405562375872397E1    -4.748366190281070E1    -1.419592230477163E1    -4.831339040468045E1    -1.947290608958368E1     1.778403393435755E2
 1.808800000000000E9    -1.621741346991500E1     2.857014721510651E1    -1.436403562870634E1     5.024747071362384E1    -1.463135246695723E1     4.901357560820972E1    -1.557553160749525E1    -4.009588598488026E1
 1.883750000000000E9    -2.208549132858316E1    -1.645519787558107E2    -1.450403612646313E1     1.425780529310173E2    -1.467388155463098E1     1.413608842152842E2    -2.213204473021419E1     1.636860430041820E2
 1.958700000000000E9    -1.454238555450861E1    -2.795537993534307E1    -1.527736032346726E1    -1.208290830366516E2    -1.540513242614066E1    -1.223961861597658E2    -1.599938362352709E1    -3.930764435904460E1
 2.033650000000000E9    -1.702952809929480E1     1.616690705582879E2    -1.535510700714829E1    -2.767406577839442E1    -1.551777071282107E1    -3.013173198372639E1    -2.399237791613613E1     7.195581853870875E1
 2.108600000000000E9    -1.135218767314430E1     4.776657781067551      -1.621548937790606E1     6.570839668309939E1    -1.631591523075532E1     6.370643334059728E1    -1.723424391079137E1    -1.131134640011091E2
 2.183550000000000E9    -1.100632338973734E1    -1.521388288746011E2    -1.659947180413991E1     1.642681810738468E2    -1.651547855028524E1     1.600490824014331E2    -1.559894887721392E1     1.437643102614524E1
 2.258500000000000E9    -9.663598609782531       4.625726944780449E1    -1.720669323021730E1    -1.041525900474844E2    -1.690272730793777E1    -1.051161162584036E2    -1.682666779414655E1    -1.344518143385797E2
 2.333450000000000E9    -8.214967635686063      -1.041063678840682E2    -1.776646179914341E1    -5.719713812981192      -1.774752023632254E1    -7.878004002765992      -2.441429246332060E1     1.280658280854953E1
 2.408400000000000E9    -8.871750560281638       8.685378104872196E1    -1.822138492028670E1     8.955430095982454E1    -1.850939988920212E1     8.972109732422790E1    -1.753479462733572E1    -6.560230008307943E1
 2.483350000000000E9    -8.223374512353784      -6.817980327114036E1    -1.903112453650074E1    -1.732499237941640E2    -1.921011480800267E1    -1.752411335114947E2    -1.906658870085839E1    -1.540492539370249E2
 2.558300000000000E9    -1.146019021772831E1     1.287306100146185E2    -1.919271151314516E1    -7.372553424759499E1    -1.920666309894482E1    -7.646956127167878E1    -1.380094055431548E1     3.158031367620901
 2.633250000000000E9    -1.031569140641726E1    -2.574730816612499E1    -1.962937895136003E1     2.279664154537300E1    -1.931536174847752E1     2.068491539259781E1    -1.443017725634264E1    -1.472463119768309E2
 2.708200000000000E9    -1.405182700245212E1     1.713423701064536E2    -1.961993684541718E1     1.241509601807945E2    -1.951470506607711E1     1.219836657842581E2    -1.973229066145853E1    -8.127125661860218
 2.783150000000000E9    -1.741707822391800E1     4.840980054459942      -1.905457596601251E1    -1.415676693372797E2    -1.903760389316905E1    -1.441789651243730E2    -2.151937959753086E1    -1.467727281111753
 2.858100000000000E9    -1.887489822435357E1    -1.438690796513757E2    -1.947689337223218E1    -4.774754037335529E1    -1.952611417792328E1    -4.974226414756411E1    -1.377426602622620E1    -1.458501735532436E2
 2.933050000000000E9    -2.187133176611878E1    -2.059333579907980E1    -1.940293948966985E1     4.790685927708091E1    -1.944701218639314E1     4.642538401954242E1    -1.427702333988014E1     2.853378921196126E1
 3.008000000000000E9    -2.176813667525650E1     1.585943740995183E2    -1.947184272240670E1     1.404990561995564E2    -1.944091320081364E1     1.393368561657544E2    -1.364309639785936E1    -1.074869379772727E2
 3.082950000000000E9    -1.594892484267589E1    -2.976337528517076E1    -1.962969175353406E1    -1.266642543993831E2    -1.970149705387772E1    -1.290229154593453E2    -1.723675142918382E1     1.154047941339932E2
 3.157900000000000E9    -1.307613200961803E1     1.712305157948929E2    -2.028664379491631E1    -3.331876479455075E1    -2.042233459184696E1    -3.570294587308181E1    -1.441907207882149E1    -3.253229765774082E1
 3.232850000000000E9    -1.073450952679694E1     5.755798408517910      -2.150654801638203E1     6.159239060431020E1    -2.124716407671940E1     5.786043904203640E1    -1.287801724694125E1    -1.560777625352375E2
 3.307800000000000E9    -9.904411429568437      -1.515948643304651E2    -2.204965361781976E1     1.593586571645238E2    -2.189145117357999E1     1.567450966717360E2    -1.274635869103073E1     3.912738243584293E1
 3.382750000000000E9    -9.589829945840229       5.663674537940869E1    -2.257699092320770E1    -1.042007334923363E2    -2.239701127926822E1    -1.059449739205723E2    -1.234349610576271E1    -1.056236293284919E2
 3.457700000000000E9    -9.233405662990023      -1.023941475825568E2    -2.259973942442861E1    -4.978987343389115      -2.307408286209213E1    -5.562787043751676      -1.579793822661898E1     1.230158838709712E2
 3.532650000000000E9    -9.043091980240028       1.091118042454821E2    -2.306717113362748E1     9.108205947306865E1    -2.320580659281336E1     8.774480423236847E1    -1.474131717967074E1    -1.669803575083234E1
 3.607600000000000E9    -9.621488340270762      -5.122500204076495E1    -2.378083419837277E1    -1.730511772720499E2    -2.365100933592847E1    -1.768169549434886E2    -1.074602481679550E1    -1.447198247242409E2
 3.682550000000000E9    -1.024342556634726E1     1.593615930103972E2    -2.422254440674020E1    -7.814740076766569E1    -2.375176305919837E1    -8.045917484710877E1    -9.808687021272378       6.085596744939451E1
 3.757500000000000E9    -1.310590747589562E1    -2.517609738762476      -2.461169067677001E1     2.152387276293371E1    -2.472078802344194E1     2.125296149277388E1    -8.692340577327251      -1.003342715708239E2
 3.832450000000000E9    -1.705566818604269E1    -1.682138920934717E2    -2.419967324329224E1     1.268430038090476E2    -2.453413563681232E1     1.233904428209489E2    -1.073965304519484E1     1.105066968893716E2
 3.907400000000000E9    -2.917448867108125E1     1.218125754478435E2    -2.389939506797133E1    -1.394508136434942E2    -2.384324470979324E1    -1.433375318702620E2    -1.173999443482766E1    -2.556241028569114E1
 3.982350000000000E9    -2.599297629106528E1     7.619803461011595E1    -2.423359542486359E1    -4.918302096213279E1    -2.402996235872136E1    -4.983821003965279E1    -1.031582743873962E1    -1.693098355949211E2
 4.057300000000000E9    -1.695181948676724E1    -1.002964656715347E2    -2.437176455486814E1     4.502903302363457E1    -2.435101866363281E1     4.548989414810799E1    -1.043033465276275E1     3.762528242217061E1
 4.132250000000000E9    -1.412908355332308E1     1.217533527746385E2    -2.407673238123912E1     1.397814526170509E2    -2.466636607287967E1     1.358249599516379E2    -1.046630953962075E1    -1.084870221868852E2
 4.207200000000000E9    -1.527230203500049E1    -2.434636476384944E1    -2.520458737882699E1    -1.238647762235043E2    -2.492008648885073E1    -1.295066115769201E2    -9.868558368296515       1.065597565304887E2
 4.282150000000000E9    -1.150426184489311E1    -1.677598149886988E2    -2.598724936120176E1    -2.981695041323348E1    -2.562810637692006E1    -3.153964573084798E1    -1.163976148538766E1    -4.931722998260057E1
 4.357100000000000E9    -1.157736864535818E1     4.738241425730852E1    -2.625471816551686E1     6.609145005222419E1    -2.604043432879280E1     6.557683510612176E1    -1.267559343467152E1     1.732009831399819E2
 4.432050000000000E9    -1.137103048110102E1    -1.081296984342199E2    -2.617799501825449E1     1.584068473932797E2    -2.683133215576106E1     1.581049768343815E2    -1.159024059987347E1     4.497932540761572E1
 4.507000000000000E9    -1.111353841942650E1     1.050770573945296E2    -2.723581708584055E1    -1.023046123784601E2    -2.758427755357728E1    -1.095318422432201E2    -1.092897162300399E1    -1.097984830258720E2
 4.581950000000000E9    -1.343519124703601E1    -3.720186109209602E1    -2.814182955281166E1    -3.916014672070021      -2.765817986068769E1    -5.260984839354012      -1.122808366644019E1     9.816776712552135E1
 4.656900000000000E9    -1.315805390089049E1     1.797547845788930E2    -2.796351578497163E1     9.058445022235493E1    -2.773719628902630E1     8.915721588290528E1    -1.241092026131586E1    -3.941302016290787E1
 4.731850000000000E9    -1.372286703797386E1     3.742691552103143E1    -2.860255937202019E1    -1.775546308848342E2    -2.852801011852754E1    -1.761056693272032E2    -1.154623227078847E1    -1.771561604045883E2
 4.806800000000000E9    -1.593603240279739E1    -9.978985844302895E1    -2.882934821548858E1    -7.873416667761418E1    -2.937384960347764E1    -8.472044372443594E1    -1.064998385957641E1     4.723158132871417E1
 4.881750000000000E9    -1.677905325801453E1     1.338730615467269E2    -3.075140277306815E1     1.674249469181475E1    -3.042935605705321E1     1.365776541108363E1    -1.069207349921676E1    -1.030022865973122E2
 4.956700000000000E9    -1.317877545148597E1     9.801521872501590      -3.162372192137293E1     1.166853769116816E2    -3.153225239862811E1     1.162348910809582E2    -9.881352996327985       1.054749113258445E2
 5.031650000000000E9    -1.202614887523343E1    -1.310943595648972E2    -3.224516144415060E1    -1.417161962466603E2    -3.217892127677313E1    -1.411510487028004E2    -1.001616440626221E1    -3.567043881742952E1
 5.106600000000000E9    -1.034295019356118E1     6.900581733036917E1    -3.207742357856100E1    -3.984446827453710E1    -3.235561130216634E1    -4.116267265621364E1    -1.104026276678095E1     1.697221301591196E2
 5.181550000000000E9    -1.009522079786538E1    -7.533285572755713E1    -3.185777628628016E1     6.206241064264574E1    -3.189148860714416E1     5.610584417709224E1    -1.056308735163767E1     2.370961787590312E1
 5.256500000000000E9    -1.126594697924739E1     1.276171054101806E2    -3.229323226423132E1     1.619441842254481E2    -3.179880636528342E1     1.600381808881311E2    -1.261867014924830E1    -1.239198463880166E2
 5.331450000000000E9    -1.036090363635584E1    -9.607820164270221      -3.167093397724880E1    -1.000130560611395E2    -3.164928265910085E1    -1.032045218606336E2    -1.278239238874133E1     8.884436120833035E1
 5.406400000000000E9    -1.188022822174728E1    -1.529353826326396E2    -3.184502884492862E1    -5.844125084508466      -3.177297473340327E1    -6.697198407307218      -1.285908629670447E1    -4.290624793428380E1
 5.481350000000000E9    -1.115485223763367E1     5.342363808027584E1    -3.127470196932556E1     9.227997446378269E1    -3.181937631124063E1     8.849039405038833E1    -1.480511958169709E1     1.612175262499838E2
 5.556300000000000E9    -1.173749202961292E1    -7.576413785817080E1    -3.122686003058226E1    -1.701815194621679E2    -3.095097444907701E1    -1.732861019339580E2    -1.349607603212298E1     1.545016660703687E1
 5.631250000000000E9    -1.323694562086152E1     1.293862895616284E2    -3.104743808888031E1    -7.772085946136372E1    -3.103795899251957E1    -8.021780738242528E1    -1.462711180927558E1    -1.247334862952830E2
 5.706200000000000E9    -1.231329649633181E1    -3.940370316361320      -3.134385120125947E1     1.743533430733142E1    -3.104178995850349E1     1.476213379399879E1    -1.466190674489443E1     6.488598725017674E1
 5.781150000000000E9    -1.422436437069146E1    -1.289077388470222E2    -3.114406643637592E1     1.096081872959050E2    -3.121889404938266E1     1.058372598820594E2    -1.757952510637750E1    -7.258461786859237E1
 5.856100000000000E9    -1.441206179197201E1     8.111174220037105E1    -3.148601194540588E1    -1.602022462394965E2    -3.155538696082781E1    -1.644586720503052E2    -2.335491955038517E1     1.214309855677255E2
 5.931050000000000E9    -1.253447989003677E1    -4.067104025648472E1    -3.274800539197363E1    -6.539013764134241E1    -3.266681490470830E1    -6.899101815649286E1    -2.037857153020894E1    -1.870632044498189E1
 6.006000000000000E9    -1.255928630655191E1     1.790447310009906E2    -3.321969445987258E1     3.173203009803641E1    -3.326091881293054E1     2.874270939666844E1    -3.314090701776821E1    -5.284272466554490E1
 6.080950000000000E9    -1.162579793027209E1     2.928766338735870E1    -3.388276387515798E1     1.234287352625716E2    -3.400689322698231E1     1.218623307286531E2    -2.790270480936826E1     1.449129037396857E2
 6.155900000000000E9    -1.170676229787180E1    -1.025670594165566E2    -3.586865221066039E1    -1.390611564243113E2    -3.599321468371603E1    -1.443955554341842E2    -1.914020423990928E1    -2.315004686977388E1
 6.230850000000000E9    -1.253428782684757E1     1.165081454202033E2    -3.658916108581215E1    -2.752036412688793E1    -3.629508355233948E1    -3.080959632579374E1    -2.639535426049331E1    -1.416823015212382E2
 6.305800000000000E9    -1.149700219653387E1    -2.349505772801755E1    -3.560897047556990E1     7.222070649245005E1    -3.546557899514909E1     6.835162491804196E1    -2.155713561283325E1     5.552819892249946E1
 6.380750000000000E9    -1.141146715434653E1    -1.589611540776951E2    -3.547584400794231E1     1.683223932196456E2    -3.552382068350405E1     1.661971449452312E2    -1.706990193318300E1    -7.366282873737481E1
 6.455700000000000E9    -1.225152027382754E1     5.914252691398968E1    -3.499843018146010E1    -9.578574917050818E1    -3.531158993395608E1    -1.001734961992778E2    -2.385243031848150E1     1.190378684213098E2
 6.530650000000000E9    -1.138637810548763E1    -7.456773612364118E1    -3.480943544401149E1     2.472353111426284E-1   -3.468475354466717E1    -5.975801898363663      -2.081456315077883E1    -2.267512945883345
 6.605600000000000E9    -1.079491446954811E1     1.525686578863572E2    -3.476287078988389E1     9.367356219655500E1    -3.460721642879352E1     9.148111511541822E1    -1.691325812342803E1    -1.294716703691303E2
 6.680550000000000E9    -1.044576072834738E1     6.926737640245485      -3.491471593236980E1    -1.765410640287801E2    -3.482428108178480E1    -1.783625453948440E2    -1.710597833074694E1     5.794213256688032E1
 6.755500000000000E9    -8.919139141356263      -1.325052309763660E2    -3.534134142523879E1    -8.472582564827340E1    -3.554509401418625E1    -8.959450415947316E1    -1.701477508341880E1    -9.218494997583407E1
 6.830450000000000E9    -9.210295016695294       8.816666191845817E1    -3.600136375227442E1     7.341134370043682      -3.594992731814077E1    -9.646185766727355E-1   -2.475053096990502E1     1.294713461264600E2
