#  HZ   S   RI   R     50.00 
! Rohde & Schwarz Vector Network Analyzer 
! Rohde-Schwarz,ZNA43-2Port,1332450042101266,2.10
! Created: UTC 9/3/2021, 1:16:31 PM
! freq[Hz]                re:S11                  im:S11                  re:S21                  im:S21                  re:S12                  im:S12                  re:S22                  im:S22
 1.000000000000000E7    -3.389557434793052E-2    5.344303492919394E-3    9.941315079192673E-1   -1.352715328190765E-1    9.514756360630687E-1   -1.562986601038374E-1    4.575346530706297E-2    2.988207735418430E-2
 9.698000000000000E7    -1.117844196631701E-2   -1.019038186205072E-2    3.287513580758443E-2   -9.857507083338096E-1    3.506971128945112E-2   -9.853732108309500E-1   -9.827377857020730E-3   -6.824490370872134E-3
 1.839600000000000E8    -3.685205459423798E-3    9.909399805938621E-3   -9.525250112418676E-1   -2.297248997678931E-1   -9.513474692733704E-1   -2.290409163865759E-1   -9.897261169669012E-4    8.837823368908426E-3
 2.709400000000000E8    -2.613745594386027E-3   -8.315058835346403E-3   -4.158218355797689E-1    8.814968102911512E-1   -4.151078369029903E-1    8.814663192669254E-1   -7.825006810342761E-4   -6.696715692717584E-3
 3.579200000000000E8    -1.448029982537627E-2    1.233766833257020E-2    7.756113749536295E-1    5.835751027235170E-1    7.751070691400860E-1    5.825385502192898E-1   -5.689697349708464E-3    1.501606629112927E-2
 4.449000000000000E8     9.006089204518617E-3    3.844874492356473E-3    7.269814935112116E-1   -6.377386175895657E-1    7.257538024988793E-1   -6.383743219625119E-1    1.241926814813224E-2    1.065427782049988E-3
 5.318800000000000E8    -2.052283971351712E-2    6.188723648742796E-3   -4.746090975798566E-1   -8.385355184827392E-1   -4.750868414869703E-1   -8.374521283317521E-1   -1.412701933954150E-2    1.001090366861178E-2
 6.188600000000000E8     8.074307652522331E-3    1.784908215811679E-2   -9.144071742319726E-1    2.941298798433916E-1   -9.149047712433729E-1    2.909665746325033E-1    1.530078576480705E-2    1.158465292524082E-2
 7.058400000000000E8    -7.139080008396786E-3   -3.438709532972553E-3    9.968671502951336E-2    9.529754917739437E-1    9.944935014282758E-2    9.522894910978462E-1   -7.448377598237514E-3   -1.031200371708133E-3
 7.928200000000000E8    -4.972126834235230E-3    2.942740213109649E-2    9.503197920099811E-1    9.961816739646583E-2    9.498086149714842E-1    9.535547547824196E-2    9.907735715291868E-3    2.554414009472717E-2
 8.798000000000000E8     1.268949513092180E-2    1.915210926053082E-3    2.871783148544545E-1   -9.090556305476167E-1    2.906657723099658E-1   -9.072169611253339E-1    1.256886109206303E-2   -7.392511608490283E-3
 9.667800000000000E8    -1.614108265502355E-2    2.215926641261334E-2   -8.277835282209168E-1   -4.665498213556424E-1   -8.268338654973415E-1   -4.673025734501975E-1   -5.646815990271392E-3    2.048050080902669E-2
 1.053760000000000E9     2.207095355536808E-2    2.126731807264036E-2   -6.266299429805059E-1    7.115543820772305E-1   -6.246339672317339E-1    7.124132747716853E-1    2.818104525373535E-2    5.317351570401573E-3
 1.140740000000000E9    -9.688379328693576E-3    4.047914496261684E-3    5.700712963638825E-1    7.552292444486404E-1    5.664055953911222E-1    7.574763511391540E-1   -6.816548868196957E-3    2.242107934538093E-3
 1.227720000000000E9     1.028735359650911E-2    3.445795841347304E-2    8.547302612873199E-1   -3.998404784775236E-1    8.545623339270658E-1   -3.990659106700964E-1    2.626027878132318E-2    1.936197468471388E-2
 1.314700000000000E9     1.049973597674848E-2    9.727762544489548E-4   -2.157607517102308E-1   -9.172956720792433E-1   -2.153308008386523E-1   -9.170721644753930E-1    4.008397099042146E-3   -1.453995263407242E-2
 1.401680000000000E9    -2.874187145895374E-3    3.061304864634513E-2   -9.394295120062508E-1    2.499911929169540E-2   -9.395032377588665E-1    2.213824349225108E-2    1.373119982503548E-2    2.322574526532820E-2
 1.488660000000000E9     2.627996586292891E-2    1.046140942778244E-2   -1.693888063248775E-1    9.227048998132165E-1   -1.704084454119990E-1    9.225606291907963E-1    2.203940914655787E-2   -1.888397194392006E-2
 1.575640000000000E9    -8.681309455741457E-3    1.676168685844953E-2    8.675392142820676E-1    3.525438578744838E-1    8.660903539472795E-1    3.565569494046552E-1   -4.629925781505895E-3    1.359806183305699E-2
 1.662620000000000E9     2.829039317577586E-2    2.881144954067003E-2    5.227587070780034E-1   -7.744285276785279E-1    5.259152108196808E-1   -7.726162496450314E-1    3.401686534928306E-2   -2.342448849456521E-3
 1.749600000000000E9     5.090694393234660E-3    3.662729585169937E-3   -6.502724523771301E-1   -6.686973566894183E-1   -6.479409539027529E-1   -6.729356927510624E-1   -9.398590309170465E-3   -9.582901879272937E-3
 1.836580000000000E9     1.530131056866315E-2    3.590348535835158E-2   -7.866580119337585E-1    4.990964849805120E-1   -7.888627786424250E-1    4.944342892397200E-1    2.499254685814881E-2    1.647097286352446E-2
 1.923560000000000E9     2.279329998115570E-2    7.160622786817186E-3    3.257975939144908E-1    8.712892816307076E-1    3.220540349124317E-1    8.718951785071941E-1    1.947121444253238E-3   -2.624585230464459E-2
 2.010540000000000E9     6.218929685800734E-3    2.739718823103263E-2    9.175036790552883E-1   -1.414771788951082E-1    9.178603935168982E-1   -1.356225938381045E-1    8.242098457645758E-4    2.101117419997519E-2
 2.097520000000000E9     3.098125507748628E-2    1.654596728097713E-2    5.232791209019265E-2   -9.243926096700873E-1    5.624340160848596E-2   -9.255902577599734E-1    1.859490123003445E-2   -2.315322267870198E-2
 2.184500000000000E9     4.852328766919715E-3    1.429598134437750E-2   -8.925753097321869E-1   -2.405668985882271E-1   -8.943347747985054E-1   -2.443268610894067E-1   -1.780189429154187E-2    8.941669400092576E-3
 2.271480000000000E9     2.762840425893705E-2    2.650468381731009E-2   -4.184450503890078E-1    8.224672838753442E-1   -4.212772623746842E-1    8.229833806500831E-1    2.690104586934986E-2   -6.398456446487483E-3
 2.358460000000000E9     1.189162748041591E-2    1.125515045219194E-2    7.189485426342546E-1    5.763686887112828E-1    7.180607075992481E-1    5.803679328678980E-1   -2.480868976791781E-2   -8.330163601416453E-3
 2.445440000000000E9     2.440434550421600E-2    2.487098449367703E-2    7.116107826694902E-1   -5.829070860722975E-1    7.145922418906774E-1   -5.812314012786081E-1    1.458829181302210E-2    1.993349637654439E-2
 2.532420000000000E9     1.969682727326845E-2    1.097342057945745E-2   -4.232823855638036E-1   -8.149772497303337E-1   -4.214803443715814E-1   -8.182076994313384E-1   -1.226358287942097E-2   -1.966279617321284E-2
 2.619400000000000E9     1.931221489022169E-2    2.274778785044333E-2   -8.828867683603852E-1    2.464741907257487E-1   -8.863630050329608E-1    2.440653482188390E-1   -1.048908939075771E-2    2.817140190800362E-2
 2.706380000000000E9     2.910663194951899E-2    1.507974521687681E-2    6.078706397882296E-2    9.140514968547970E-1    5.613437956224937E-2    9.160397116599234E-1    8.629026597650153E-3   -1.644356800895092E-2
 2.793360000000000E9     2.186696968363063E-2    2.436044774774294E-2    9.055872834861640E-1    1.280325518622939E-1    9.067201115230921E-1    1.324288843165515E-1   -3.632389003562202E-2    2.195090319380637E-2
 2.880340000000000E9     3.872896496013842E-2    8.837485429202388E-3    3.111402564195676E-1   -8.591386983920607E-1    3.150780755272945E-1   -8.582275099287681E-1    1.961098160299839E-2    1.741965913362668E-2
 2.967320000000000E9     1.321337961601954E-2    1.680085204780028E-2   -7.752649530444500E-1   -4.785867861000678E-1   -7.730138106619684E-1   -4.851213251545198E-1   -3.206335649394743E-2    5.697629284901761E-3
 3.054300000000000E9     4.385294953688530E-2    1.317226339786234E-2   -6.267756705741663E-1    6.583285315351244E-1   -6.333706361592544E-1    6.555504591896909E-1    7.733982508643919E-3    4.333700678909728E-2
 3.141280000000000E9     1.035190393996225E-2    2.016730129430520E-3    5.163423581132959E-1    7.491092056368929E-1    5.105236286132301E-1    7.544046637906388E-1   -1.446999391146117E-2    9.982945450594631E-4
 3.228260000000000E9     4.067338700179843E-2    2.800482147504246E-2    8.369398537029327E-1   -3.508430390034279E-1    8.428819294176879E-1   -3.443229882952414E-1   -8.848011236095840E-3    5.730323644366957E-2
 3.315240000000000E9     2.273296710745057E-2   -7.570897586568297E-3   -1.717843891597694E-1   -8.910009643306467E-1   -1.635416393478997E-1   -8.942687833862321E-1    8.225778339911158E-3    1.070912880926379E-2
 3.402220000000000E9     2.415100315459230E-2    3.798018566223634E-2   -9.051093568746024E-1   -1.258710834566218E-2   -9.057381163491652E-1   -2.319736204008436E-2   -2.672319935416054E-2    5.269671387200456E-2
 3.489200000000000E9     5.694028915987581E-2   -1.153423145661389E-2   -2.013587653093409E-1    8.809680097778823E-1   -2.104244534483665E-1    8.797640754618002E-1    3.330998572667725E-2    4.460573706830903E-2
 3.576180000000000E9     2.002336641815781E-3    1.747679048890358E-2    8.211606128367318E-1    3.767394777690473E-1    8.188781186336391E-1    3.841145934984443E-1   -1.791620816724201E-2    3.049223384410314E-2
 3.663160000000000E9     8.295696087051568E-2    1.196049448423075E-2    5.346065479975239E-1   -7.233039716117858E-1    5.434292937269057E-1   -7.185096939238261E-1    3.572604021658220E-2    8.148378679368151E-2
 3.750140000000000E9     9.912827659546986E-4   -2.362371424563898E-2   -5.982897592087321E-1   -6.739444718002467E-1   -5.937800758997946E-1   -6.801372018142584E-1    2.031738939171011E-2    2.057219483617360E-2
 3.837120000000000E9     6.127315763696412E-2    4.095999332371501E-2   -7.786794058483152E-1    4.458685747745605E-1   -7.823843440553090E-1    4.422621355769745E-1    1.797407315776633E-2    8.403841072409007E-2
 3.924100000000000E9     3.427660452663191E-2   -4.954221501551195E-2    2.741057224330620E-1    8.546674122020761E-1    2.683301282249267E-1    8.573656605107108E-1    5.275928502065101E-2    3.366694460131810E-2
 4.011080000000000E9     1.037731160091410E-2    4.448061733851082E-2    8.912180375212246E-1   -9.591469575065723E-2    8.927506801273407E-1   -9.004214417398797E-2    1.250752357375440E-2    6.525733104240038E-2
 4.098060000000000E9     8.829947634850809E-2   -3.690731126627184E-2    9.316085376516313E-2   -8.883434238838042E-1    9.680835921640192E-2   -8.886982853887180E-1    8.037339158782768E-2    6.180952324287788E-2
 4.185040000000000E9    -2.852409489071368E-2    3.730769239042003E-3   -8.534604404244573E-1   -2.701769166009234E-1   -8.532487936089204E-1   -2.761216156535727E-1    3.318688760428158E-2    4.192270602779702E-2
 4.272020000000000E9     1.137507302849586E-1    1.731577957099854E-2   -4.363364657291194E-1    7.733870420447945E-1   -4.406410171519925E-1    7.729884688620228E-1    8.829351537142151E-2    8.840488583784561E-2
 4.359000000000000E9    -1.523784311561037E-2   -6.902985417791614E-2    6.669628639881414E-1    5.903554357878504E-1    6.663383717228905E-1    5.936719459928164E-1    8.108844936566617E-2    2.565768321724099E-2
 4.445980000000000E9     5.919114662922570E-2    6.876929023263202E-2    7.078409405060038E-1   -5.340992887642101E-1    7.120221984628066E-1   -5.310534893210873E-1    7.932805464266765E-2    7.767463440088372E-2
 4.532960000000000E9     5.472937898279327E-2   -9.561153992257231E-2   -3.709561668583778E-1   -8.029733087338103E-1   -3.671459872027489E-1   -8.065745706921141E-1    1.223108461395655E-1    2.688822295353766E-2
 4.619940000000000E9    -2.403576993181622E-2    6.039628578364087E-2   -8.616859668102717E-1    2.052350416865837E-1   -8.648084873247207E-1    1.990958938193537E-1    8.064991099343868E-2    5.270291831723802E-2
 4.706920000000000E9     1.363418020699187E-1   -4.561013228895422E-2    2.036887634838061E-2    8.770886608717082E-1    1.205505874281576E-2    8.792490624768178E-1    1.589659403257750E-1    3.452381544673960E-2
 4.793900000000000E9    -6.687814149184294E-2   -3.255307880730681E-2    8.673962500080120E-1    1.650194841330599E-1    8.694286159544807E-1    1.670405103313275E-1    1.003027653555166E-1    3.361102340997665E-3
 4.880880000000000E9     1.325033531168305E-1    5.030872004903450E-2    3.325553722295872E-1   -8.085006407970348E-1    3.339006867801174E-1   -8.093773670643805E-1    1.608945250045175E-1    3.838887331149654E-2
 4.967860000000000E9    -1.328902974343181E-2   -1.263074898587301E-1   -7.197423050916998E-1   -4.997972025609257E-1   -7.211914990653296E-1   -4.990733789580123E-1    1.458307391873840E-1   -3.573025892832721E-2
 5.054840000000000E9     3.734394896676473E-2    9.880461375019128E-2   -6.256532201605427E-1    6.104118289854201E-1   -6.338397959411043E-1    6.057221291402790E-1    1.413762218311949E-1    1.527934790658163E-2
 5.141820000000000E9     9.398849122026504E-2   -1.316396416324851E-1    4.572566030008106E-1    7.368076976029354E-1    4.542116035151415E-1    7.417488233876676E-1    1.841769734305435E-1   -4.642253375905728E-2
 5.228800000000000E9    -7.614142970620934E-2    4.206561922766040E-2    8.199236693351808E-1   -3.000006722464655E-1    8.226369341524625E-1   -2.996632165099490E-1    1.312163436926918E-1   -4.004918356098118E-2
 5.315780000000000E9     1.694020348331054E-1   -3.036399405648170E-2   -1.249917888184442E-1   -8.519261062489446E-1   -1.212774104141929E-1   -8.562576104638256E-1    1.981395293348563E-1   -5.906419200528219E-2
 5.402760000000000E9    -9.160782014100549E-2   -9.692856247430401E-2   -8.650005649719316E-1   -6.041948642463726E-2   -8.677986894690919E-1   -6.280427860035002E-2    1.305410147443409E-1   -1.107436564077023E-1
 5.489740000000000E9     1.261519621253008E-1    8.474721413537878E-2   -2.268744947268078E-1    8.315431400032683E-1   -2.246843844472337E-1    8.343584128109857E-1    1.771859805298835E-1   -6.492607786511451E-2
 5.576720000000000E9     2.179410572103302E-3   -1.778446169833285E-1    7.590326237856460E-1    3.996968396599507E-1    7.621272967679914E-1    3.980101011391161E-1    1.573470952468233E-1   -1.473755166867732E-1
 5.663700000000000E9    -1.466369841000457E-2    1.146212773559562E-1    5.439224926650521E-1   -6.694998289240692E-1    5.435290949691539E-1   -6.739196828515671E-1    1.387656031371131E-1   -1.007228264673025E-1
 5.750680000000000E9     1.364881572565309E-1   -1.429979290203729E-1   -5.323039828256371E-1   -6.618701234773287E-1   -5.392709359125315E-1   -6.604892242664211E-1    1.747414830395835E-1   -1.652277414196866E-1
 5.837660000000000E9    -1.391572154128191E-1   -4.323547458022835E-3   -7.666431990792884E-1    3.832795514632216E-1   -7.663408975033102E-1    3.912606608837084E-1    1.030124047281701E-1   -1.743002308361300E-1
 5.924640000000000E9     1.774905672957835E-1    5.991389190246204E-3    2.249589337714121E-1    8.187803708167132E-1    2.326194699481793E-1    8.190166444887744E-1    1.490336416044864E-1   -1.762595143328001E-1
 6.011620000000000E9    -1.045809226591060E-1   -1.625545191031094E-1    8.456644998876895E-1   -3.940707207440531E-2    8.475740478830196E-1   -4.739631575111902E-2    8.381871499861036E-2   -2.312102594273104E-1
 6.098600000000000E9     7.218119272839076E-2    1.212303877610680E-1    1.238130863727608E-1   -8.417875208894493E-1    1.195175377632704E-1   -8.447419774052998E-1    9.775485571166967E-2   -1.849694801218633E-1
 6.185580000000000E9     4.320551581909441E-2   -2.171822416470056E-1   -7.847916986521265E-1   -2.911052289004434E-1   -7.877508153502374E-1   -2.929693728640954E-1    8.066577151406486E-2   -2.637448872294155E-1
 6.272560000000000E9    -1.110778768923593E-1    8.712658323997871E-2   -4.553102339617821E-1    7.146467311846788E-1   -4.561993492757014E-1    7.181262106464529E-1    2.140329398380672E-2   -2.230593577381857E-1
 6.359540000000000E9     1.623767703524564E-1   -1.101655709662843E-1    6.042198976475459E-1    5.763814990332312E-1    6.078075682947444E-1    5.775144714072048E-1    6.362090406377632E-2   -2.561001059844571E-1
 6.446520000000000E9    -1.922376571612167E-1   -7.853252154496383E-2    6.928767373723660E-1   -4.624626435969745E-1    6.981790565744111E-1   -4.596760417028971E-1   -2.524022943957618E-2   -2.780155770897206E-1
 6.533500000000000E9     1.382655757875350E-1    7.313885586331433E-2   -3.221488038666779E-1   -7.724959913227405E-1   -3.209549776159205E-1   -7.766490418649666E-1    1.317937296657565E-3   -2.451768519527118E-1
 6.620480000000000E9    -9.094949899246617E-2   -2.261911337549394E-1   -8.094930264794660E-1    1.466475929395727E-1   -8.112655529716380E-1    1.463561048153059E-1   -5.067634041106615E-2   -3.060631818840159E-1
 6.707460000000000E9    -3.802935319231049E-2    1.576985911598318E-1   -2.170611559792575E-2    8.344361382049398E-1   -2.667092144454313E-2    8.369082214640494E-1   -7.744967765745808E-2   -2.560156546681330E-1
 6.794440000000000E9     9.310674860301020E-2   -2.131241442053569E-1    7.997559972569077E-1    1.781084505884365E-1    8.022980961811800E-1    1.852253944198201E-1   -8.267502842879651E-2   -3.050652755325123E-1
 6.881420000000000E9    -2.154068338498809E-1    4.033007697116867E-2    3.541251549055332E-1   -7.425755767386499E-1    3.630404568352202E-1   -7.428541016118463E-1   -1.674355018674972E-1   -2.713579910953973E-1
 6.968400000000000E9     1.762777513789934E-1   -3.063504866690198E-2   -6.649522183079991E-1   -4.888585765459492E-1   -6.654844172581302E-1   -4.902742716687252E-1   -1.311574187278914E-1   -2.603104484068965E-1
 7.055380000000000E9    -2.182653141999040E-1   -1.641505292654632E-1   -6.087483745100674E-1    5.309493545818785E-1   -6.140029600743085E-1    5.273661359921239E-1   -2.239820168208878E-1   -2.872948748485976E-1
 7.142360000000000E9     5.978195447080209E-2    1.558475913329286E-1    4.075175062609761E-1    7.167663543183341E-1    3.999542961675244E-1    7.239299852037460E-1   -2.051098959854523E-1   -2.085489914057282E-1
 7.229340000000000E9    -4.828082332483583E-2   -2.661978296571355E-1    7.606468627143814E-1   -2.539200077605640E-1    7.660268597242712E-1   -2.473326445303105E-1   -2.474432713691618E-1   -2.749203176805625E-1
 7.316320000000000E9    -1.817604677167933E-1    1.594308237906505E-1   -7.169160598102631E-2   -8.053231361524917E-1   -6.588716172934005E-2   -8.088129076396957E-1   -3.072549895372975E-1   -1.800329084585207E-1
 7.403300000000000E9     1.515495623430213E-1   -1.376948006368150E-1   -8.062008167867980E-1   -7.365367765547642E-2   -8.085518356461523E-1   -8.090070930667871E-2   -2.749293786973899E-1   -1.935441296439505E-1
 7.490280000000000E9    -2.871048473779072E-1   -3.550420462004717E-2   -2.473083420640440E-1    7.532776523756048E-1   -2.533968454496236E-1    7.536987535886013E-1   -3.591547667562421E-1   -1.587479640116312E-1
 7.577260000000000E9     1.453663596093637E-1    1.009232844457141E-1    7.042469282068679E-1    4.000160584164725E-1    7.020873561989139E-1    4.074118922080455E-1   -3.106308029105115E-1   -1.020748473495799E-1
 7.664240000000000E9    -1.910700071819368E-1   -2.257123761409368E-1    5.149913698996249E-1   -5.927230806049594E-1    5.210216881846101E-1   -5.894626658592881E-1   -3.763262493950855E-1   -1.363615017077587E-1
 7.751220000000000E9    -6.529014660699017E-2    2.325557577094927E-1   -4.663934092390493E-1   -6.457360800805695E-1   -4.620682976654200E-1   -6.519309346928280E-1   -3.669084730047476E-1   -2.247714032190511E-2
 7.838200000000000E9     4.267170481658852E-2   -2.357406131039022E-1   -7.128535999078148E-1    3.445982754902415E-1   -7.193532814093315E-1    3.375312023701735E-1   -3.599229450428565E-1   -7.303595593339390E-2
