!Agilent Technologies,E8364B,US41440127,A.06.04.32
!Agilent E8364B: A.06.04.32
!Date: Tuesday, August 11, 2020 14:30:28
!Correction: S11(Off) S21(Off) S12(Off) S22(Off) 
!S2P File: Measurements: S11, S21, S12, S22:
# Hz S  dB   R 50
1000000000 -3.486530e+001 1.153588e+002 -1.991340e+000 -8.851910e+001 -2.255466e+000 -1.074370e+002 -2.870904e+001 7.811349e+001
1003062500 -3.483219e+001 7.394574e+001 -1.990496e+000 -1.086889e+002 -2.256176e+000 -1.277292e+002 -3.266579e+001 5.633988e+001
1006125000 -3.637335e+001 4.978261e+001 -1.997448e+000 -1.288478e+002 -2.255133e+000 -1.480103e+002 -3.893138e+001 6.718903e+001
1009187500 -3.952796e+001 5.568839e+001 -1.997823e+000 -1.489966e+002 -2.259815e+000 -1.682924e+002 -3.520967e+001 1.094230e+002
1012250000 -3.636697e+001 8.734699e+001 -2.006258e+000 -1.691591e+002 -2.263677e+000 1.714334e+002 -2.972012e+001 9.788520e+001
1015312500 -3.077819e+001 8.210831e+001 -2.018426e+000 1.707047e+002 -2.276297e+000 1.511897e+002 -2.659062e+001 7.406590e+001
1018375000 -2.712232e+001 6.294569e+001 -2.030090e+000 1.506223e+002 -2.285814e+000 1.309957e+002 -2.483951e+001 4.722857e+001
1021437500 -2.485882e+001 3.979911e+001 -2.038860e+000 1.305843e+002 -2.290696e+000 1.108517e+002 -2.406171e+001 1.929660e+001
1024500000 -2.361708e+001 1.509234e+001 -2.037287e+000 1.105642e+002 -2.289270e+000 9.071486e+001 -2.412271e+001 -9.166130e+000
1027562500 -2.323939e+001 -1.043927e+001 -2.027874e+000 9.052478e+001 -2.278061e+000 7.056926e+001 -2.502260e+001 -3.803039e+001
1030625000 -2.369950e+001 -3.655708e+001 -2.018142e+000 7.041879e+001 -2.267000e+000 5.034366e+001 -2.694893e+001 -6.709284e+001
1033687500 -2.508484e+001 -6.316796e+001 -2.007988e+000 5.027477e+001 -2.258231e+000 3.008480e+001 -3.041755e+001 -9.600613e+001
1036750000 -2.767912e+001 -9.022414e+001 -2.009894e+000 3.012278e+001 -2.254276e+000 9.813765e+000 -3.742670e+001 -1.221456e+002
1039812500 -3.230573e+001 -1.175460e+002 -2.014191e+000 1.000305e+001 -2.256487e+000 -1.042053e+001 -4.800014e+001 -1.308536e+001
1042875000 -4.325807e+001 -1.438416e+002 -2.013914e+000 -1.008137e+001 -2.256275e+000 -3.063902e+001 -3.460344e+001 -2.128387e+001
1045937500 -4.134689e+001 1.728743e+000 -2.009357e+000 -3.017715e+001 -2.251322e+000 -5.086979e+001 -3.021863e+001 -5.290089e+001
1049000000 -3.385358e+001 -2.771504e+001 -2.005873e+000 -5.033031e+001 -2.250797e+000 -7.112547e+001 -2.800467e+001 -8.794109e+001
1052062500 -3.129281e+001 -6.021379e+001 -2.001890e+000 -7.052158e+001 -2.251264e+000 -9.138905e+001 -2.679742e+001 -1.252407e+002
1055125000 -3.063383e+001 -9.625565e+001 -2.012781e+000 -9.070332e+001 -2.260742e+000 -1.116268e+002 -2.613284e+001 -1.647068e+002
1058187500 -3.105588e+001 -1.377493e+002 -2.027132e+000 -1.108141e+002 -2.270063e+000 -1.318136e+002 -2.572705e+001 1.543508e+002
1061250000 -3.171182e+001 1.728794e+002 -2.038852e+000 -1.308733e+002 -2.271740e+000 -1.519560e+002 -2.543391e+001 1.125891e+002
1064312500 -3.144351e+001 1.176588e+002 -2.034858e+000 -1.509047e+002 -2.263901e+000 -1.720946e+002 -2.527808e+001 7.070911e+001
1067375000 -3.004904e+001 6.548359e+001 -2.022845e+000 -1.709958e+002 -2.246624e+000 1.677106e+002 -2.534357e+001 2.868421e+001
1070437500 -2.847788e+001 1.959499e+001 -2.011048e+000 1.688089e+002 -2.231162e+000 1.474164e+002 -2.571129e+001 -1.433163e+001
1073500000 -2.733993e+001 -2.223392e+001 -2.010309e+000 1.485310e+002 -2.227388e+000 1.270733e+002 -2.637185e+001 -5.974223e+001
1076562500 -2.674325e+001 -6.247324e+001 -2.026974e+000 1.282810e+002 -2.238081e+000 1.067461e+002 -2.706034e+001 -1.091752e+002
1079625000 -2.663562e+001 -1.027962e+002 -2.053097e+000 1.081177e+002 -2.255745e+000 8.650442e+001 -2.719976e+001 -1.621826e+002
1082687500 -2.686050e+001 -1.440313e+002 -2.074076e+000 8.807715e+001 -2.267991e+000 6.635495e+001 -2.646733e+001 1.457219e+002
1085750000 -2.729765e+001 1.733790e+002 -2.081020e+000 6.805994e+001 -2.267331e+000 4.624057e+001 -2.528985e+001 9.847029e+001
1088812500 -2.787806e+001 1.295787e+002 -2.075439e+000 4.801011e+001 -2.252547e+000 2.609260e+001 -2.424997e+001 5.595412e+001
1091875000 -2.861855e+001 8.440112e+001 -2.064545e+000 2.784794e+001 -2.238170e+000 5.819685e+000 -2.370731e+001 1.636254e+001
1094937500 -2.962613e+001 3.726308e+001 -2.068199e+000 7.619016e+000 -2.233355e+000 -1.449642e+001 -2.379746e+001 -2.205870e+001
1098000000 -3.080949e+001 -1.382861e+001 -2.088490e+000 -1.259210e+001 -2.244307e+000 -3.479436e+001 -2.463141e+001 -6.112743e+001
1101062500 -3.164756e+001 -7.084318e+001 -2.116544e+000 -3.270367e+001 -2.258432e+000 -5.500848e+001 -2.624432e+001 -1.035504e+002
1104125000 -3.126418e+001 -1.305175e+002 -2.137176e+000 -5.271360e+001 -2.266328e+000 -7.514458e+001 -2.844559e+001 -1.543506e+002
1107187500 -2.983660e+001 1.748718e+002 -2.145174e+000 -7.270274e+001 -2.266580e+000 -9.528084e+001 -2.969369e+001 1.414001e+002
1110250000 -2.832723e+001 1.266551e+002 -2.143589e+000 -9.276743e+001 -2.253157e+000 -1.154945e+002 -2.816797e+001 7.723732e+001
1113312500 -2.724582e+001 8.197754e+001 -2.148545e+000 -1.129252e+002 -2.250634e+000 -1.358016e+002 -2.574017e+001 2.652109e+001
1116375000 -2.663821e+001 3.778579e+001 -2.168282e+000 -1.331220e+002 -2.264565e+000 -1.561347e+002 -2.389616e+001 -1.567188e+001
1119437500 -2.628385e+001 -7.523795e+000 -2.209087e+000 -1.532383e+002 -2.296474e+000 -1.763816e+002 -2.281909e+001 -5.416586e+001
1122500000 -2.580951e+001 -5.438378e+001 -2.250064e+000 -1.732035e+002 -2.326709e+000 1.635039e+002 -2.240890e+001 -9.140446e+001
1125562500 -2.492494e+001 -1.006618e+002 -2.276055e+000 1.669550e+002 -2.344020e+000 1.434891e+002 -2.256169e+001 -1.286774e+002
1128625000 -2.376517e+001 -1.438102e+002 -2.273800e+000 1.471366e+002 -2.332682e+000 1.234805e+002 -2.320098e+001 -1.671094e+002
1131687500 -2.267685e+001 1.769762e+002 -2.253631e+000 1.272135e+002 -2.304087e+000 1.033587e+002 -2.426892e+001 1.523118e+002
1134750000 -2.199878e+001 1.411418e+002 -2.230673e+000 1.071333e+002 -2.273924e+000 8.308141e+001 -2.571963e+001 1.085527e+002
1137812500 -2.193192e+001 1.077209e+002 -2.220130e+000 8.696857e+001 -2.258850e+000 6.269508e+001 -2.747332e+001 6.026822e+001
1140875000 -2.267613e+001 7.613416e+001 -2.235028e+000 6.679703e+001 -2.267040e+000 4.231849e+001 -2.929062e+001 5.305392e+000
1143937500 -2.450793e+001 4.588771e+001 -2.255522e+000 4.672992e+001 -2.286062e+000 2.203821e+001 -3.030155e+001 -5.827795e+001
1147000000 -2.816903e+001 1.666401e+001 -2.268145e+000 2.675157e+001 -2.299929e+000 1.862877e+000 -2.927501e+001 -1.239785e+002
1150062500 -3.705433e+001 -1.085077e+001 -2.262768e+000 6.788894e+000 -2.298497e+000 -1.830644e+001 -2.680052e+001 1.795625e+002
1153125000 -3.777128e+001 1.355042e+002 -2.248624e+000 -1.328817e+001 -2.286840e+000 -3.854325e+001 -2.425457e+001 1.329118e+002
1156187500 -2.826472e+001 1.080382e+002 -2.241775e+000 -3.350084e+001 -2.283979e+000 -5.888028e+001 -2.220194e+001 9.233381e+001
1159250000 -2.446427e+001 7.904958e+001 -2.256589e+000 -5.373209e+001 -2.297088e+000 -7.924895e+001 -2.074203e+001 5.539967e+001
1162312500 -2.260958e+001 4.918441e+001 -2.291372e+000 -7.388181e+001 -2.328685e+000 -9.954217e+001 -1.987500e+001 2.076935e+001
1165375000 -2.192288e+001 1.822147e+001 -2.333133e+000 -9.384512e+001 -2.362251e+000 -1.196710e+002 -1.959090e+001 -1.232696e+001
1168437500 -2.208041e+001 -1.486431e+001 -2.353879e+000 -1.136455e+002 -2.381374e+000 -1.396518e+002 -1.990297e+001 -4.450014e+001
1171500000 -2.283502e+001 -5.164536e+001 -2.345547e+000 -1.334198e+002 -2.371807e+000 -1.596142e+002 -2.087856e+001 -7.644146e+001
1174562500 -2.379451e+001 -9.402287e+001 -2.310498e+000 -1.532969e+002 -2.339406e+000 -1.796879e+002 -2.270821e+001 -1.090287e+002
1177625000 -2.422212e+001 -1.415004e+002 -2.268827e+000 -1.733688e+002 -2.305234e+000 1.600552e+002 -2.582730e+001 -1.439124e+002
1180687500 -2.373256e+001 1.716992e+002 -2.244285e+000 1.664035e+002 -2.285156e+000 1.396519e+002 -3.139596e+001 1.721448e+002
1183750000 -2.288982e+001 1.307171e+002 -2.243338e+000 1.461363e+002 -2.290881e+000 1.192320e+002 -3.812375e+001 6.855871e+001
1186812500 -2.240049e+001 9.579002e+001 -2.256104e+000 1.259490e+002 -2.318605e+000 9.891690e+001 -3.082650e+001 -1.774919e+001
1189875000 -2.264692e+001 6.533546e+001 -2.273252e+000 1.058764e+002 -2.343465e+000 7.873125e+001 -2.647638e+001 -5.956971e+001
1192937500 -2.387173e+001 3.878420e+001 -2.277387e+000 8.587259e+001 -2.356545e+000 5.864526e+001 -2.419115e+001 -9.541689e+001
1196000000 -2.650864e+001 1.727706e+001 -2.270163e+000 6.581990e+001 -2.349244e+000 3.852665e+001 -2.297745e+001 -1.302552e+002
1199062500 -3.136379e+001 1.006764e+001 -2.254134e+000 4.566675e+001 -2.337910e+000 1.831972e+001 -2.243357e+001 -1.654106e+002
1202125000 -3.420367e+001 5.192502e+001 -2.249285e+000 2.543514e+001 -2.329491e+000 -1.969321e+000 -2.232285e+001 1.587950e+002
1205187500 -2.839943e+001 6.643762e+001 -2.263108e+000 5.201609e+000 -2.340163e+000 -2.228617e+001 -2.250670e+001 1.225977e+002
1208250000 -2.458598e+001 5.135365e+001 -2.287423e+000 -1.494301e+001 -2.359412e+000 -4.253699e+001 -2.290471e+001 8.681595e+001
1211312500 -2.254088e+001 2.973096e+001 -2.309073e+000 -3.497061e+001 -2.380658e+000 -6.269702e+001 -2.354323e+001 5.232077e+001
1214375000 -2.165775e+001 5.788978e+000 -2.317183e+000 -5.493306e+001 -2.392728e+000 -8.277617e+001 -2.454268e+001 2.002210e+001
1217437500 -2.168695e+001 -1.962407e+001 -2.309465e+000 -7.489622e+001 -2.391154e+000 -1.028740e+002 -2.612311e+001 -9.141279e+000
1220500000 -2.256115e+001 -4.659587e+001 -2.293018e+000 -9.494222e+001 -2.382671e+000 -1.230386e+002 -2.861401e+001 -3.305510e+001
1223562500 -2.432187e+001 -7.591915e+001 -2.279047e+000 -1.150623e+002 -2.378137e+000 -1.432522e+002 -3.235326e+001 -4.477124e+001
1226625000 -2.704882e+001 -1.100027e+002 -2.275582e+000 -1.352414e+002 -2.384692e+000 -1.634942e+002 -3.510140e+001 -2.780485e+001
1229687500 -3.049858e+001 -1.543388e+002 -2.279158e+000 -1.554169e+002 -2.399277e+000 1.763145e+002 -3.206018e+001 -1.328362e+001
1232750000 -3.271762e+001 1.465344e+002 -2.288833e+000 -1.755571e+002 -2.410233e+000 1.561789e+002 -2.871823e+001 -2.435414e+001
1235812500 -3.202866e+001 9.203663e+001 -2.295027e+000 1.643566e+002 -2.418361e+000 1.360804e+002 -2.672499e+001 -4.438654e+001
1238875000 -3.103158e+001 5.410711e+001 -2.298943e+000 1.442801e+002 -2.416902e+000 1.159824e+002 -2.584359e+001 -6.742832e+001
1241937500 -3.118069e+001 2.694163e+001 -2.301856e+000 1.241742e+002 -2.414242e+000 9.583851e+001 -2.589581e+001 -9.156082e+001
1245000000 -3.263725e+001 8.398724e+000 -2.301580e+000 1.040574e+002 -2.410169e+000 7.566387e+001 -2.686199e+001 -1.158818e+002
1248062500 -3.510475e+001 3.199063e+000 -2.307344e+000 8.393367e+001 -2.411675e+000 5.547405e+001 -2.884667e+001 -1.396986e+002
1251125000 -3.626725e+001 1.650023e+001 -2.312125e+000 6.381584e+001 -2.415694e+000 3.527049e+001 -3.215563e+001 -1.615332e+002
1254187500 -3.414986e+001 2.492014e+001 -2.315841e+000 4.372873e+001 -2.423022e+000 1.508095e+001 -3.757619e+001 -1.757861e+002
1257250000 -3.186971e+001 1.652280e+001 -2.321662e+000 2.363522e+001 -2.428358e+000 -5.094444e+000 -4.463799e+001 -1.504788e+002
1260312500 -3.067075e+001 4.755859e-002 -2.322652e+000 3.546065e+000 -2.429423e+000 -2.527472e+001 -4.102256e+001 -1.168066e+002
1263375000 -3.059175e+001 -2.027328e+001 -2.318711e+000 -1.656169e+001 -2.434070e+000 -4.546901e+001 -3.794328e+001 -1.328836e+002
1266437500 -3.164158e+001 -4.271232e+001 -2.322917e+000 -3.667179e+001 -2.438468e+000 -6.566374e+001 -3.721751e+001 -1.625946e+002
1269500000 -3.388671e+001 -6.753294e+001 -2.326610e+000 -5.678537e+001 -2.441539e+000 -8.586560e+001 -3.772069e+001 1.586117e+002
1272562500 -3.763163e+001 -9.706853e+001 -2.330264e+000 -7.689876e+001 -2.446502e+000 -1.060381e+002 -3.835829e+001 1.111005e+002
1275625000 -4.301410e+001 -1.426286e+002 -2.335607e+000 -9.700400e+001 -2.451409e+000 -1.262186e+002 -3.804693e+001 6.200245e+001
1278687500 -4.522377e+001 1.447315e+002 -2.333506e+000 -1.171119e+002 -2.446919e+000 -1.464101e+002 -3.747726e+001 2.022046e+001
1281750000 -4.277322e+001 1.007494e+002 -2.334451e+000 -1.372221e+002 -2.448702e+000 -1.666247e+002 -3.796571e+001 -1.325256e+001
1284812500 -4.127769e+001 8.434687e+001 -2.336830e+000 -1.573510e+002 -2.449980e+000 1.731544e+002 -4.079113e+001 -3.805024e+001
1287875000 -3.984352e+001 8.179408e+001 -2.336577e+000 -1.774794e+002 -2.452053e+000 1.529348e+002 -4.875807e+001 -2.509455e+001
1290937500 -3.748034e+001 7.952342e+001 -2.333283e+000 1.624001e+002 -2.455670e+000 1.327306e+002 -4.157048e+001 4.274764e+001
1294000000 -3.511054e+001 6.926414e+001 -2.334597e+000 1.422630e+002 -2.460397e+000 1.125352e+002 -3.466897e+001 2.907991e+001
1297062500 -3.360231e+001 5.211231e+001 -2.338026e+000 1.221322e+002 -2.461163e+000 9.233142e+001 -3.099836e+001 6.559186e+000
1300125000 -3.320394e+001 2.931325e+001 -2.338340e+000 1.019978e+002 -2.463836e+000 7.214730e+001 -2.903660e+001 -1.738776e+001
1303187500 -3.411743e+001 -5.919021e-001 -2.339551e+000 8.187093e+001 -2.466230e+000 5.194993e+001 -2.838528e+001 -4.172735e+001
1306250000 -3.614645e+001 -4.514433e+001 -2.342892e+000 6.173353e+001 -2.465681e+000 3.175175e+001 -2.903809e+001 -6.576974e+001
1309312500 -3.593454e+001 -1.117975e+002 -2.341974e+000 4.159467e+001 -2.469328e+000 1.156109e+001 -3.147994e+001 -8.845285e+001
1312375000 -3.185036e+001 -1.658960e+002 -2.343566e+000 2.143937e+001 -2.470509e+000 -8.654872e+000 -3.778959e+001 -1.037833e+002
1315437500 -2.811994e+001 1.589509e+002 -2.343540e+000 1.272587e+000 -2.474865e+000 -2.888288e+001 -4.275707e+001 -3.120938e+000
1318500000 -2.558234e+001 1.314965e+002 -2.350969e+000 -1.890536e+001 -2.479213e+000 -4.912777e+001 -3.156559e+001 -3.162349e+000
1321562500 -2.403862e+001 1.076739e+002 -2.360247e+000 -3.906796e+001 -2.494109e+000 -6.935580e+001 -2.677413e+001 -2.537865e+001
1324625000 -2.335441e+001 8.627674e+001 -2.368328e+000 -5.920810e+001 -2.512296e+000 -8.953814e+001 -2.408493e+001 -5.047107e+001
1327687500 -2.345234e+001 6.740723e+001 -2.378699e+000 -7.931421e+001 -2.527683e+000 -1.096620e+002 -2.257822e+001 -7.693871e+001
1330750000 -2.429846e+001 5.201384e+001 -2.385460e+000 -9.940127e+001 -2.535649e+000 -1.297378e+002 -2.191096e+001 -1.046587e+002
1333812500 -2.575606e+001 4.244706e+001 -2.386319e+000 -1.195066e+002 -2.535835e+000 -1.497937e+002 -2.192390e+001 -1.339335e+002
1336875000 -2.720809e+001 4.170212e+001 -2.385022e+000 -1.396414e+002 -2.524318e+000 -1.698796e+002 -2.249552e+001 -1.654108e+002
1339937500 -2.737760e+001 4.731945e+001 -2.391476e+000 -1.597927e+002 -2.511446e+000 1.699741e+002 -2.349981e+001 1.599518e+002
1343000000 -2.614091e+001 4.767684e+001 -2.403101e+000 -1.799364e+002 -2.500234e+000 1.497875e+002 -2.468513e+001 1.215510e+002
1346062500 -2.487966e+001 3.912428e+001 -2.419918e+000 1.599738e+002 -2.500571e+000 1.295999e+002 -2.568015e+001 8.020487e+001
1349125000 -2.434011e+001 2.462449e+001 -2.434478e+000 1.399381e+002 -2.500218e+000 1.094545e+002 -2.631455e+001 3.885477e+001
1352187500 -2.479715e+001 6.453586e+000 -2.441571e+000 1.199397e+002 -2.500105e+000 8.935416e+001 -2.690294e+001 6.291264e-001
1355250000 -2.656150e+001 -1.497021e+001 -2.439804e+000 9.992112e+001 -2.490100e+000 6.922684e+001 -2.804455e+001 -3.370575e+001
1358312500 -3.044935e+001 -4.249401e+001 -2.433387e+000 7.983704e+001 -2.475793e+000 4.907099e+001 -3.055790e+001 -6.473396e+001
1361375000 -3.827441e+001 -1.056857e+002 -2.432568e+000 5.967987e+001 -2.466509e+000 2.884895e+001 -3.651013e+001 -9.302962e+001
1364437500 -3.291199e+001 1.489251e+002 -2.440783e+000 3.951055e+001 -2.464006e+000 8.601433e+000 -4.845467e+001 5.601908e+001
1367500000 -2.697861e+001 1.144398e+002 -2.463353e+000 1.935742e+001 -2.472354e+000 -1.162849e+001 -3.219914e+001 3.258921e+001
1370562500 -2.388774e+001 9.156956e+001 -2.490979e+000 -7.139771e-001 -2.485752e+000 -3.179196e+001 -2.691879e+001 8.007463e+000
1373625000 -2.225113e+001 7.237808e+001 -2.512979e+000 -2.071911e+001 -2.493303e+000 -5.189576e+001 -2.398694e+001 -1.573167e+001
1376687500 -2.155673e+001 5.603506e+001 -2.521150e+000 -4.070827e+001 -2.489681e+000 -7.197079e+001 -2.225921e+001 -3.869270e+001
1379750000 -2.151374e+001 4.277036e+001 -2.517439e+000 -6.072125e+001 -2.472970e+000 -9.208978e+001 -2.134669e+001 -6.086864e+001
1382812500 -2.183881e+001 3.339685e+001 -2.512904e+000 -8.078436e+001 -2.454139e+000 -1.122690e+002 -2.106719e+001 -8.216969e+001
1385875000 -2.211153e+001 2.786956e+001 -2.507675e+000 -1.008891e+002 -2.431486e+000 -1.325117e+002 -2.132000e+001 -1.025038e+002
1388937500 -2.196084e+001 2.410816e+001 -2.501325e+000 -1.209857e+002 -2.418204e+000 -1.528166e+002 -2.202166e+001 -1.217117e+002
1392000000 -2.140440e+001 1.856704e+001 -2.509771e+000 -1.410615e+002 -2.412169e+000 -1.731238e+002 -2.308370e+001 -1.396649e+002
1395062500 -2.083094e+001 9.403457e+000 -2.506855e+000 -1.611357e+002 -2.409750e+000 1.665798e+002 -2.439291e+001 -1.565857e+002
1398125000 -2.060155e+001 -3.064635e+000 -2.503911e+000 1.788176e+002 -2.411602e+000 1.462931e+002 -2.583375e+001 -1.732726e+002
1401187500 -2.096565e+001 -1.788869e+001 -2.496010e+000 1.587326e+002 -2.418528e+000 1.260244e+002 -2.730782e+001 1.687177e+002
1404250000 -2.212298e+001 -3.407418e+001 -2.488675e+000 1.386168e+002 -2.423629e+000 1.057876e+002 -2.878098e+001 1.472355e+002
1407312500 -2.438647e+001 -5.070423e+001 -2.486142e+000 1.185061e+002 -2.427749e+000 8.556741e+001 -3.012455e+001 1.202802e+002
1410375000 -2.849909e+001 -6.639915e+001 -2.483331e+000 9.840664e+001 -2.430073e+000 6.537466e+001 -3.101000e+001 8.726476e+001
1413437500 -3.763860e+001 -7.261248e+001 -2.479927e+000 7.831881e+001 -2.426697e+000 4.517735e+001 -3.109493e+001 5.158310e+001
1416500000 -3.833267e+001 5.125536e+001 -2.477106e+000 5.825087e+001 -2.419404e+000 2.495168e+001 -3.058832e+001 1.848146e+001
1419562500 -3.001596e+001 4.621728e+001 -2.465352e+000 3.815714e+001 -2.410609e+000 4.689823e+000 -3.017521e+001 -9.434427e+000
1422625000 -2.690762e+001 3.229707e+001 -2.458893e+000 1.802286e+001 -2.406430e+000 -1.561304e+001 -3.037312e+001 -3.189168e+001
1425687500 -2.573503e+001 1.895470e+001 -2.450499e+000 -2.126482e+000 -2.408217e+000 -3.591183e+001 -3.142199e+001 -4.727153e+001
1428750000 -2.570789e+001 8.652541e+000 -2.446887e+000 -2.229492e+001 -2.415766e+000 -5.618703e+001 -3.308685e+001 -5.050868e+001
1431812500 -2.628404e+001 4.063107e+000 -2.444312e+000 -4.245206e+001 -2.416721e+000 -7.643852e+001 -3.330120e+001 -3.801043e+001
1434875000 -2.654491e+001 5.973804e+000 -2.443599e+000 -6.260836e+001 -2.421911e+000 -9.669721e+001 -3.053967e+001 -3.011333e+001
1437937500 -2.569623e+001 8.770440e+000 -2.442927e+000 -8.278448e+001 -2.421596e+000 -1.169647e+002 -2.742056e+001 -3.708254e+001
1441000000 -2.420745e+001 5.474831e+000 -2.442076e+000 -1.029512e+002 -2.424482e+000 -1.372503e+002 -2.512301e+001 -5.194761e+001
1444062500 -2.294924e+001 -4.434936e+000 -2.452555e+000 -1.231363e+002 -2.436968e+000 -1.575387e+002 -2.370308e+001 -7.046157e+001
1447125000 -2.232241e+001 -1.868691e+001 -2.467014e+000 -1.432778e+002 -2.453757e+000 -1.777850e+002 -2.306348e+001 -9.083074e+001
1450187500 -2.246004e+001 -3.560786e+001 -2.481720e+000 -1.633654e+002 -2.472555e+000 1.620473e+002 -2.318706e+001 -1.122924e+002
1453250000 -2.349772e+001 -5.424055e+001 -2.493797e+000 1.765959e+002 -2.479456e+000 1.419350e+002 -2.412014e+001 -1.346996e+002
1456312500 -2.570167e+001 -7.438477e+001 -2.495347e+000 1.565875e+002 -2.477387e+000 1.218443e+002 -2.603597e+001 -1.582086e+002
1459375000 -2.985128e+001 -9.688696e+001 -2.487058e+000 1.365559e+002 -2.463709e+000 1.016942e+002 -2.943205e+001 1.760183e+002
1462437500 -3.946699e+001 -1.321108e+002 -2.471312e+000 1.164462e+002 -2.446295e+000 8.146514e+001 -3.590587e+001 1.424020e+002
1465500000 -3.826997e+001 6.781344e+001 -2.467230e+000 9.626557e+001 -2.436760e+000 6.117052e+001 -4.437580e+001 2.052669e+001
