!Agilent Technologies,E8364B,US41440127,A.06.04.32
!Agilent E8364B: A.06.04.32
!Date: Tuesday, August 11, 2020 14:31:50
!Correction: S11(Off) S21(Off) S12(Off) S22(Off) 
!S2P File: Measurements: S11, S21, S12, S22:
# Hz S  dB   R 50
1000000000 -3.569846e+001 1.126121e+002 -1.990370e+000 -8.713789e+001 -2.272646e+000 -1.061094e+002 -2.835964e+001 7.649255e+001
1003062500 -3.524939e+001 6.918099e+001 -1.994927e+000 -1.073181e+002 -2.271584e+000 -1.263939e+002 -3.204002e+001 5.251054e+001
1006125000 -3.661377e+001 4.270248e+001 -1.997523e+000 -1.274546e+002 -2.272089e+000 -1.466686e+002 -3.855167e+001 5.387354e+001
1009187500 -4.063381e+001 4.525628e+001 -2.000104e+000 -1.476052e+002 -2.273217e+000 -1.669400e+002 -3.670592e+001 1.057548e+002
1012250000 -3.796215e+001 8.810022e+001 -2.007497e+000 -1.677596e+002 -2.277913e+000 1.727810e+002 -3.053968e+001 9.811664e+001
1015312500 -3.159387e+001 8.474543e+001 -2.016355e+000 1.721040e+002 -2.288449e+000 1.525410e+002 -2.710041e+001 7.471545e+001
1018375000 -2.760173e+001 6.529204e+001 -2.028211e+000 1.520227e+002 -2.298045e+000 1.323536e+002 -2.518062e+001 4.793174e+001
1021437500 -2.519027e+001 4.187011e+001 -2.036440e+000 1.319912e+002 -2.305469e+000 1.122104e+002 -2.430034e+001 1.990390e+001
1024500000 -2.385564e+001 1.703150e+001 -2.035083e+000 1.119721e+002 -2.303566e+000 9.208449e+001 -2.427784e+001 -8.712271e+000
1027562500 -2.340546e+001 -8.619214e+000 -2.027529e+000 9.194147e+001 -2.293931e+000 7.192554e+001 -2.510513e+001 -3.779355e+001
1030625000 -2.381574e+001 -3.483473e+001 -2.013825e+000 7.184013e+001 -2.280660e+000 5.171992e+001 -2.694360e+001 -6.738059e+001
1033687500 -2.515632e+001 -6.152382e+001 -2.005921e+000 5.169473e+001 -2.270347e+000 3.146784e+001 -3.026609e+001 -9.727160e+001
1036750000 -2.769533e+001 -8.859182e+001 -2.010089e+000 3.155744e+001 -2.269229e+000 1.119820e+001 -3.690162e+001 -1.270027e+002
1039812500 -3.225064e+001 -1.160129e+002 -2.012551e+000 1.143414e+001 -2.269006e+000 -9.033472e+000 -5.298111e+001 3.984496e+000
1042875000 -4.294814e+001 -1.427808e+002 -2.015686e+000 -8.646615e+000 -2.269448e+000 -2.924594e+001 -3.531500e+001 -1.573040e+001
1045937500 -4.152464e+001 3.964425e+000 -2.012313e+000 -2.874538e+001 -2.269012e+000 -4.947732e+001 -3.064215e+001 -4.917523e+001
1049000000 -3.385768e+001 -2.538718e+001 -2.005664e+000 -4.888057e+001 -2.262754e+000 -6.971690e+001 -2.831451e+001 -8.481987e+001
1052062500 -3.125326e+001 -5.787474e+001 -2.005779e+000 -6.907096e+001 -2.264782e+000 -8.997101e+001 -2.704448e+001 -1.226437e+002
1055125000 -3.054794e+001 -9.353409e+001 -2.013138e+000 -8.923778e+001 -2.272283e+000 -1.102168e+002 -2.631970e+001 -1.624599e+002
1058187500 -3.093582e+001 -1.346091e+002 -2.028295e+000 -1.093580e+002 -2.282035e+000 -1.303998e+002 -2.585174e+001 1.563515e+002
1061250000 -3.163518e+001 1.766418e+002 -2.037233e+000 -1.294192e+002 -2.285012e+000 -1.505390e+002 -2.550419e+001 1.144264e+002
1064312500 -3.147622e+001 1.216622e+002 -2.035295e+000 -1.494423e+002 -2.275484e+000 -1.706622e+002 -2.527752e+001 7.254155e+001
1067375000 -3.015426e+001 6.889854e+001 -2.021166e+000 -1.695265e+002 -2.261138e+000 1.691392e+002 -2.527891e+001 3.066221e+001
1070437500 -2.856041e+001 2.256083e+001 -2.009279e+000 1.702803e+002 -2.243536e+000 1.488585e+002 -2.558268e+001 -1.204885e+001
1073500000 -2.739960e+001 -1.946073e+001 -2.009102e+000 1.500165e+002 -2.237163e+000 1.285153e+002 -2.620496e+001 -5.694469e+001
1076562500 -2.677638e+001 -5.974506e+001 -2.026715e+000 1.297592e+002 -2.251037e+000 1.082009e+002 -2.690012e+001 -1.056534e+002
1079625000 -2.664723e+001 -9.998594e+001 -2.052556e+000 1.095981e+002 -2.268817e+000 8.795387e+001 -2.713705e+001 -1.580931e+002
1082687500 -2.686748e+001 -1.411342e+002 -2.073639e+000 8.955618e+001 -2.279207e+000 6.780901e+001 -2.652549e+001 1.496188e+002
1085750000 -2.731717e+001 1.764623e+002 -2.082588e+000 6.955058e+001 -2.279851e+000 4.770023e+001 -2.539425e+001 1.018355e+002
1088812500 -2.791193e+001 1.326395e+002 -2.075955e+000 4.950171e+001 -2.265735e+000 2.754812e+001 -2.435090e+001 5.884862e+001
1091875000 -2.868008e+001 8.744637e+001 -2.066653e+000 2.935505e+001 -2.251604e+000 7.286000e+000 -2.377211e+001 1.896189e+001
1094937500 -2.969967e+001 4.004576e+001 -2.069996e+000 9.131018e+000 -2.248849e+000 -1.301644e+001 -2.380701e+001 -1.960490e+001
1098000000 -3.088663e+001 -1.133712e+001 -2.087575e+000 -1.106879e+001 -2.256629e+000 -3.331523e+001 -2.456790e+001 -5.862896e+001
1101062500 -3.168084e+001 -6.878493e+001 -2.114681e+000 -3.117745e+001 -2.272858e+000 -5.352412e+001 -2.612159e+001 -1.007132e+002
1104125000 -3.122543e+001 -1.283876e+002 -2.140331e+000 -5.120258e+001 -2.281994e+000 -7.366626e+001 -2.828180e+001 -1.507438e+002
1107187500 -2.972658e+001 1.773608e+002 -2.147605e+000 -7.118145e+001 -2.279080e+000 -9.378433e+001 -2.966896e+001 1.460569e+002
1110250000 -2.819175e+001 1.295614e+002 -2.147879e+000 -9.123719e+001 -2.270396e+000 -1.139963e+002 -2.833668e+001 8.134992e+001
1113312500 -2.710390e+001 8.534154e+001 -2.146375e+000 -1.113851e+002 -2.263933e+000 -1.342908e+002 -2.592709e+001 2.975880e+001
1116375000 -2.651494e+001 4.175893e+001 -2.168259e+000 -1.315795e+002 -2.277178e+000 -1.546179e+002 -2.404168e+001 -1.294549e+001
1119437500 -2.622677e+001 -3.207641e+000 -2.205506e+000 -1.517012e+002 -2.306263e+000 -1.748805e+002 -2.291462e+001 -5.173560e+001
1122500000 -2.586891e+001 -4.987206e+001 -2.248660e+000 -1.716695e+002 -2.337155e+000 1.650040e+002 -2.245634e+001 -8.909715e+001
1125562500 -2.510466e+001 -9.646373e+001 -2.276730e+000 1.684933e+002 -2.354374e+000 1.449964e+002 -2.256329e+001 -1.264304e+002
1128625000 -2.398485e+001 -1.403340e+002 -2.274680e+000 1.486769e+002 -2.345633e+000 1.249875e+002 -2.315440e+001 -1.648737e+002
1131687500 -2.289247e+001 1.798483e+002 -2.254783e+000 1.287682e+002 -2.317974e+000 1.048784e+002 -2.416584e+001 1.546120e+002
1134750000 -2.217170e+001 1.435242e+002 -2.232820e+000 1.087000e+002 -2.285821e+000 8.462373e+001 -2.554211e+001 1.111312e+002
1137812500 -2.205774e+001 1.097866e+002 -2.226125e+000 8.853851e+001 -2.272050e+000 6.424683e+001 -2.722578e+001 6.345443e+001
1140875000 -2.274666e+001 7.794613e+001 -2.235177e+000 6.836946e+001 -2.277957e+000 4.387051e+001 -2.900917e+001 9.704149e+000
1143937500 -2.451581e+001 4.742320e+001 -2.253032e+000 4.831362e+001 -2.295874e+000 2.358049e+001 -3.018595e+001 -5.249102e+001
1147000000 -2.807373e+001 1.771104e+001 -2.266818e+000 2.833892e+001 -2.309411e+000 3.407603e+000 -2.946281e+001 -1.184392e+002
1150062500 -3.658553e+001 -1.190486e+001 -2.263903e+000 8.364579e+000 -2.308825e+000 -1.675468e+001 -2.711217e+001 -1.763154e+002
1153125000 -3.842394e+001 1.411429e+002 -2.248807e+000 -1.170405e+001 -2.300810e+000 -3.697189e+001 -2.454118e+001 1.359928e+002
1156187500 -2.845302e+001 1.115177e+002 -2.241171e+000 -3.188383e+001 -2.294283e+000 -5.730372e+001 -2.241613e+001 9.482850e+001
1159250000 -2.454444e+001 8.205407e+001 -2.254240e+000 -5.213613e+001 -2.305588e+000 -7.767650e+001 -2.088633e+001 5.756699e+001
1162312500 -2.263346e+001 5.220984e+001 -2.289290e+000 -7.227734e+001 -2.335801e+000 -9.797424e+001 -1.995814e+001 2.274457e+001
1165375000 -2.190496e+001 2.132968e+001 -2.330834e+000 -9.225443e+001 -2.372342e+000 -1.181102e+002 -1.961808e+001 -1.044894e+001
1168437500 -2.203463e+001 -1.145603e+001 -2.353705e+000 -1.120599e+002 -2.393985e+000 -1.381027e+002 -1.986694e+001 -4.270047e+001
1171500000 -2.280492e+001 -4.782210e+001 -2.349563e+000 -1.318251e+002 -2.386527e+000 -1.580480e+002 -2.076991e+001 -7.466826e+001
1174562500 -2.383425e+001 -8.978920e+001 -2.315622e+000 -1.516916e+002 -2.354655e+000 -1.781012e+002 -2.249583e+001 -1.072053e+002
1177625000 -2.439578e+001 -1.373097e+002 -2.273143e+000 -1.717417e+002 -2.318851e+000 1.616604e+002 -2.543845e+001 -1.418870e+002
1180687500 -2.398696e+001 1.750249e+002 -2.244725e+000 1.680399e+002 -2.298385e+000 1.412753e+002 -3.061262e+001 1.755008e+002
1183750000 -2.311950e+001 1.331958e+002 -2.241941e+000 1.477768e+002 -2.301989e+000 1.208571e+002 -3.790512e+001 8.298602e+001
1186812500 -2.256166e+001 9.764874e+001 -2.255562e+000 1.275875e+002 -2.326946e+000 1.005362e+002 -3.150330e+001 -1.256839e+001
1189875000 -2.273018e+001 6.683663e+001 -2.273999e+000 1.075080e+002 -2.353085e+000 8.034259e+001 -2.689080e+001 -5.641572e+001
1192937500 -2.387160e+001 3.991971e+001 -2.276113e+000 8.750163e+001 -2.367207e+000 6.024242e+001 -2.446198e+001 -9.277109e+001
1196000000 -2.639400e+001 1.782190e+001 -2.268783e+000 6.745600e+001 -2.360700e+000 4.014130e+001 -2.317023e+001 -1.278183e+002
1199062500 -3.115891e+001 8.631268e+000 -2.255380e+000 4.732305e+001 -2.348844e+000 1.994682e+001 -2.256443e+001 -1.631135e+002
1202125000 -3.476993e+001 4.935661e+001 -2.251360e+000 2.709953e+001 -2.341518e+000 -3.381003e-001 -2.240547e+001 1.609756e+002
1205187500 -2.882658e+001 6.780769e+001 -2.262730e+000 6.854550e+000 -2.351277e+000 -2.064374e+001 -2.254270e+001 1.247398e+002
1208250000 -2.481698e+001 5.324864e+001 -2.285248e+000 -1.328007e+001 -2.369216e+000 -4.090057e+001 -2.289966e+001 8.885918e+001
1211312500 -2.266369e+001 3.173277e+001 -2.309710e+000 -3.331466e+001 -2.392629e+000 -6.105510e+001 -2.348635e+001 5.430300e+001
1214375000 -2.170961e+001 7.876733e+000 -2.321491e+000 -5.325817e+001 -2.405746e+000 -8.114116e+001 -2.442829e+001 2.187611e+001
1217437500 -2.166936e+001 -1.746510e+001 -2.314204e+000 -7.321921e+001 -2.404172e+000 -1.012320e+002 -2.592618e+001 -7.443778e+000
1220500000 -2.247176e+001 -4.427026e+001 -2.297565e+000 -9.325476e+001 -2.397768e+000 -1.213762e+002 -2.829795e+001 -3.170267e+001
1223562500 -2.415287e+001 -7.334442e+001 -2.282820e+000 -1.133794e+002 -2.391104e+000 -1.415842e+002 -3.185759e+001 -4.489457e+001
1226625000 -2.679319e+001 -1.068031e+002 -2.277375e+000 -1.335529e+002 -2.396862e+000 -1.618212e+002 -3.489059e+001 -3.106505e+001
1229687500 -3.022370e+001 -1.496484e+002 -2.280464e+000 -1.537209e+002 -2.409476e+000 1.779960e+002 -3.228761e+001 -1.473914e+001
1232750000 -3.274583e+001 1.524437e+002 -2.290495e+000 -1.738519e+002 -2.421748e+000 1.578574e+002 -2.889479e+001 -2.409542e+001
1235812500 -3.227500e+001 9.648232e+001 -2.296839e+000 1.660538e+002 -2.430225e+000 1.377552e+002 -2.681561e+001 -4.358788e+001
1238875000 -3.124865e+001 5.740332e+001 -2.300471e+000 1.459750e+002 -2.429406e+000 1.176562e+002 -2.585557e+001 -6.635313e+001
1241937500 -3.129353e+001 2.975880e+001 -2.301207e+000 1.258825e+002 -2.423433e+000 9.752581e+001 -2.583497e+001 -9.032539e+001
1245000000 -3.263952e+001 1.107305e+001 -2.303146e+000 1.057698e+002 -2.419554e+000 7.735998e+001 -2.671014e+001 -1.146393e+002
1248062500 -3.500029e+001 5.426548e+000 -2.307417e+000 8.565366e+001 -2.421788e+000 5.717522e+001 -2.857743e+001 -1.385288e+002
1251125000 -3.610501e+001 1.782156e+001 -2.312726e+000 6.555048e+001 -2.427964e+000 3.697232e+001 -3.170105e+001 -1.605626e+002
1254187500 -3.401599e+001 2.584937e+001 -2.319220e+000 4.544436e+001 -2.434975e+000 1.678187e+001 -3.677831e+001 -1.760909e+002
1257250000 -3.171849e+001 1.757129e+001 -2.320570e+000 2.537259e+001 -2.440439e+000 -3.386684e+000 -4.382433e+001 -1.592147e+002
1260312500 -3.045593e+001 1.197649e+000 -2.323714e+000 5.284418e+000 -2.439839e+000 -2.356067e+001 -4.155529e+001 -1.212765e+002
1263375000 -3.029194e+001 -1.892881e+001 -2.321896e+000 -1.481357e+001 -2.444806e+000 -4.374947e+001 -3.820108e+001 -1.346158e+002
1266437500 -3.119925e+001 -4.131583e+001 -2.326238e+000 -3.492406e+001 -2.446551e+000 -6.393959e+001 -3.723338e+001 -1.635781e+002
1269500000 -3.320192e+001 -6.599512e+001 -2.326741e+000 -5.503629e+001 -2.454098e+000 -8.412786e+001 -3.750190e+001 1.580749e+002
1272562500 -3.652371e+001 -9.475198e+001 -2.330964e+000 -7.514015e+001 -2.459118e+000 -1.043099e+002 -3.784664e+001 1.118923e+002
1275625000 -4.117272e+001 -1.347265e+002 -2.332277e+000 -9.524572e+001 -2.460313e+000 -1.244831e+002 -3.742949e+001 6.482500e+001
1278687500 -4.428004e+001 1.646865e+002 -2.336150e+000 -1.153503e+002 -2.461251e+000 -1.446625e+002 -3.689240e+001 2.445448e+001
1281750000 -4.292565e+001 1.172834e+002 -2.336971e+000 -1.354616e+002 -2.457639e+000 -1.648753e+002 -3.730209e+001 -8.192450e+000
1284812500 -4.122083e+001 9.838142e+001 -2.337214e+000 -1.555728e+002 -2.459975e+000 1.749066e+002 -3.975454e+001 -3.141417e+001
1287875000 -3.932019e+001 9.286169e+001 -2.338497e+000 -1.757097e+002 -2.463635e+000 1.546947e+002 -4.575673e+001 -2.332264e+001
1290937500 -3.674675e+001 8.752771e+001 -2.337204e+000 1.641782e+002 -2.469048e+000 1.344913e+002 -4.142374e+001 3.421033e+001
1294000000 -3.437999e+001 7.554933e+001 -2.336886e+000 1.440475e+002 -2.471341e+000 1.143008e+002 -3.468325e+001 2.604603e+001
1297062500 -3.282774e+001 5.767608e+001 -2.340420e+000 1.239234e+002 -2.472743e+000 9.411451e+001 -3.091797e+001 5.272152e+000
1300125000 -3.235784e+001 3.534155e+001 -2.337468e+000 1.037946e+002 -2.475364e+000 7.392245e+001 -2.885736e+001 -1.805168e+001
1303187500 -3.314167e+001 7.406339e+000 -2.340633e+000 8.367103e+001 -2.476511e+000 5.372598e+001 -2.808076e+001 -4.219566e+001
1306250000 -3.527900e+001 -3.214757e+001 -2.342072e+000 6.354639e+001 -2.480462e+000 3.354379e+001 -2.856458e+001 -6.636581e+001
1309312500 -3.663242e+001 -9.590022e+001 -2.343262e+000 4.341629e+001 -2.479695e+000 1.335340e+001 -3.067280e+001 -8.989117e+001
1312375000 -3.308870e+001 -1.582315e+002 -2.345731e+000 2.328028e+001 -2.484421e+000 -6.846892e+000 -3.600088e+001 -1.098234e+002
1315437500 -2.903676e+001 1.629375e+002 -2.346197e+000 3.105726e+000 -2.485829e+000 -2.706978e+001 -4.826378e+001 -2.146545e+001
1318500000 -2.624785e+001 1.342984e+002 -2.350895e+000 -1.707465e+001 -2.489532e+000 -4.730280e+001 -3.300288e+001 -7.541760e-001
1321562500 -2.455907e+001 1.099520e+002 -2.359345e+000 -3.723798e+001 -2.504073e+000 -6.753030e+001 -2.755232e+001 -2.303916e+001
1324625000 -2.378067e+001 8.836028e+001 -2.368897e+000 -5.738037e+001 -2.518542e+000 -8.771654e+001 -2.461210e+001 -4.837523e+001
1327687500 -2.382371e+001 6.942366e+001 -2.379621e+000 -7.747968e+001 -2.534130e+000 -1.078453e+002 -2.296102e+001 -7.503145e+001
1330750000 -2.464789e+001 5.412790e+001 -2.385762e+000 -9.757435e+001 -2.545012e+000 -1.279152e+002 -2.220749e+001 -1.029098e+002
1333812500 -2.610855e+001 4.487777e+001 -2.383642e+000 -1.176713e+002 -2.542944e+000 -1.479745e+002 -2.214574e+001 -1.323963e+002
1336875000 -2.754751e+001 4.511831e+001 -2.388295e+000 -1.378056e+002 -2.534143e+000 -1.680725e+002 -2.265283e+001 -1.641956e+002
1339937500 -2.753675e+001 5.162347e+001 -2.391602e+000 -1.579575e+002 -2.519785e+000 1.717818e+002 -2.357741e+001 1.608081e+002
1343000000 -2.610966e+001 5.209969e+001 -2.403658e+000 -1.781010e+002 -2.513345e+000 1.516102e+002 -2.464050e+001 1.220790e+002
1346062500 -2.470376e+001 4.338709e+001 -2.422536e+000 1.618130e+002 -2.512918e+000 1.314326e+002 -2.547549e+001 8.054713e+001
1349125000 -2.404765e+001 2.890551e+001 -2.440758e+000 1.417848e+002 -2.513101e+000 1.112968e+002 -2.591796e+001 3.947290e+001
1352187500 -2.436072e+001 1.104687e+001 -2.441408e+000 1.218018e+002 -2.513709e+000 9.119946e+001 -2.630672e+001 1.733371e+000
1355250000 -2.590834e+001 -9.328134e+000 -2.445644e+000 1.017965e+002 -2.502474e+000 7.109311e+001 -2.720918e+001 -3.199623e+001
1358312500 -2.938513e+001 -3.361969e+001 -2.437596e+000 8.173121e+001 -2.488825e+000 5.095497e+001 -2.928226e+001 -6.224497e+001
1361375000 -3.736713e+001 -7.758566e+001 -2.435415e+000 6.159378e+001 -2.476696e+000 3.075202e+001 -3.392642e+001 -8.903374e+001
1364437500 -3.568591e+001 1.521633e+002 -2.441326e+000 4.142341e+001 -2.474445e+000 1.050835e+001 -5.309389e+001 -7.899915e+001
1367500000 -2.820962e+001 1.145168e+002 -2.462114e+000 2.128252e+001 -2.478555e+000 -9.727325e+000 -3.438149e+001 2.966385e+001
1370562500 -2.465454e+001 9.166768e+001 -2.487944e+000 1.187847e+000 -2.490186e+000 -2.989892e+001 -2.799833e+001 7.219215e+000
1373625000 -2.282377e+001 7.267329e+001 -2.505384e+000 -1.880967e+001 -2.497597e+000 -5.000848e+001 -2.468567e+001 -1.595440e+001
1376687500 -2.202989e+001 5.637853e+001 -2.518039e+000 -3.881833e+001 -2.495531e+000 -7.009339e+001 -2.276692e+001 -3.865867e+001
1379750000 -2.194617e+001 4.326011e+001 -2.514234e+000 -5.883474e+001 -2.478524e+000 -9.021589e+001 -2.173533e+001 -6.076202e+001
1382812500 -2.226910e+001 3.414975e+001 -2.508989e+000 -7.888942e+001 -2.458763e+000 -1.103940e+002 -2.138414e+001 -8.211845e+001
1385875000 -2.254576e+001 2.920658e+001 -2.507633e+000 -9.898898e+001 -2.439566e+000 -1.306333e+002 -2.159116e+001 -1.025711e+002
1388937500 -2.235765e+001 2.619680e+001 -2.505084e+000 -1.190915e+002 -2.428109e+000 -1.509261e+002 -2.227627e+001 -1.219743e+002
1392000000 -2.171077e+001 2.127134e+001 -2.512050e+000 -1.391704e+002 -2.422714e+000 -1.712286e+002 -2.335018e+001 -1.402161e+002
1395062500 -2.102312e+001 1.254429e+001 -2.508828e+000 -1.592206e+002 -2.421424e+000 1.684737e+002 -2.469848e+001 -1.574570e+002
1398125000 -2.069337e+001 3.692591e-001 -2.505064e+000 -1.792603e+002 -2.425968e+000 1.481958e+002 -2.621197e+001 -1.744743e+002
1401187500 -2.095508e+001 -1.418670e+001 -2.496572e+000 1.606571e+002 -2.428425e+000 1.279479e+002 -2.777731e+001 1.671838e+002
1404250000 -2.200071e+001 -2.993229e+001 -2.490724e+000 1.405615e+002 -2.432189e+000 1.077129e+002 -2.932756e+001 1.451559e+002
1407312500 -2.409664e+001 -4.584406e+001 -2.485636e+000 1.204465e+002 -2.438193e+000 8.750198e+001 -3.068485e+001 1.170801e+002
1410375000 -2.787333e+001 -5.984845e+001 -2.482836e+000 1.003495e+002 -2.438598e+000 6.730009e+001 -3.143715e+001 8.273532e+001
1413437500 -3.541475e+001 -6.149977e+001 -2.481602e+000 8.026907e+001 -2.434300e+000 4.710419e+001 -3.122541e+001 4.636316e+001
1416500000 -3.850305e+001 3.065928e+001 -2.475527e+000 6.018641e+001 -2.427316e+000 2.688515e+001 -3.045160e+001 1.330700e+001
1419562500 -3.047800e+001 3.988827e+001 -2.465096e+000 4.009625e+001 -2.420867e+000 6.623305e+000 -2.985046e+001 -1.454227e+001
1422625000 -2.722023e+001 2.850983e+001 -2.457345e+000 1.996975e+001 -2.416131e+000 -1.366883e+001 -2.990803e+001 -3.749329e+001
1425687500 -2.599200e+001 1.582423e+001 -2.452015e+000 -1.720907e-001 -2.417030e+000 -3.396095e+001 -3.090209e+001 -5.466363e+001
1428750000 -2.598799e+001 5.560686e+000 -2.447599e+000 -2.033963e+001 -2.423220e+000 -5.424369e+001 -3.287078e+001 -6.159245e+001
1431812500 -2.671016e+001 8.242279e-001 -2.444846e+000 -4.049341e+001 -2.429161e+000 -7.448712e+001 -3.430050e+001 -4.968370e+001
1434875000 -2.721452e+001 3.669027e+000 -2.446887e+000 -6.063305e+001 -2.431108e+000 -9.473242e+001 -3.202175e+001 -3.430846e+001
1437937500 -2.645547e+001 8.681891e+000 -2.446056e+000 -8.078526e+001 -2.432186e+000 -1.149868e+002 -2.854044e+001 -3.730898e+001
1441000000 -2.483750e+001 7.080000e+000 -2.443996e+000 -1.009614e+002 -2.434916e+000 -1.352641e+002 -2.594619e+001 -5.088841e+001
1444062500 -2.342564e+001 -2.022463e+000 -2.453001e+000 -1.211327e+002 -2.443135e+000 -1.555437e+002 -2.432586e+001 -6.898677e+001
1447125000 -2.266308e+001 -1.592585e+001 -2.464391e+000 -1.412925e+002 -2.459754e+000 -1.757859e+002 -2.356824e+001 -8.919385e+001
1450187500 -2.271107e+001 -3.254710e+001 -2.481519e+000 -1.613774e+002 -2.476799e+000 1.640254e+002 -2.361065e+001 -1.106633e+002
1453250000 -2.367349e+001 -5.088277e+001 -2.493858e+000 1.785901e+002 -2.486050e+000 1.439151e+002 -2.449393e+001 -1.331722e+002
1456312500 -2.582717e+001 -7.056178e+001 -2.493876e+000 1.585765e+002 -2.482870e+000 1.238182e+002 -2.641453e+001 -1.569682e+002
1459375000 -2.993934e+001 -9.183135e+001 -2.485357e+000 1.385428e+002 -2.473143e+000 1.036776e+002 -2.988639e+001 1.765594e+002
1462437500 -3.989220e+001 -1.208534e+002 -2.475585e+000 1.184354e+002 -2.454095e+000 8.345898e+001 -3.661578e+001 1.394401e+002
1465500000 -3.853251e+001 6.168674e+001 -2.470125e+000 9.825164e+001 -2.442444e+000 6.315599e+001 -4.216271e+001 1.525552e+001
