#  HZ   S   RI   R     50.00 
! Rohde & Schwarz Vector Network Analyzer 
! Rohde-Schwarz,ZNA43-2Port,1332450042101266,2.10
! Created: UTC 9/3/2021, 1:20:04 PM
! freq[Hz]                re:S11                  im:S11                  re:S21                  im:S21                  re:S12                  im:S12                  re:S22                  im:S22
 1.000000000000000E7    -1.527144556888229E-2    1.341528384728166E-2    1.016805736176891      -1.354181616031535E-1    9.601489839021556E-1   -1.481875843307474E-1    2.332096939033504E-2    6.849626514868590E-3
 9.698000000000000E7    -1.090753128521949E-2   -9.340016386581055E-3    3.652567091870298E-2   -9.884282065582755E-1    3.929588712170982E-2   -9.840840690707315E-1   -1.147668661139103E-2   -7.863365225897069E-3
 1.839600000000000E8    -3.846744926094964E-3    6.718597755554459E-3   -9.547927135645834E-1   -2.349391452525378E-1   -9.509096488576292E-1   -2.337512356608822E-1   -2.587100540275659E-3    6.707583237748227E-3
 2.709400000000000E8    -4.492306930790779E-3   -7.169923985081400E-3   -4.229945481839908E-1    8.823608121768240E-1   -4.208669815845055E-1    8.789794058313143E-1   -4.359319571363582E-3   -8.690740541878031E-3
 3.579200000000000E8    -1.246691412917252E-2    1.042613056051014E-2    7.736117531443290E-1    5.917600372269288E-1    7.708206952042579E-1    5.893361411868190E-1   -7.816082166289068E-3    1.284399159009077E-2
 4.449000000000000E8     4.423367936838271E-3    1.605525103595795E-3    7.356862170321625E-1   -6.328524699454849E-1    7.323139776728121E-1   -6.317156562060420E-1    7.672181980154062E-3   -1.598710035505727E-3
 5.318800000000000E8    -1.850441307587797E-2    8.379642607550544E-3   -4.668887948910992E-1   -8.472568586035026E-1   -4.656084951038145E-1   -8.435040574211312E-1   -1.770678501386047E-2    8.404999995578304E-3
 6.188600000000000E8     6.146771218551991E-3    1.141768479723355E-2   -9.217169446029487E-1    2.832141841749305E-1   -9.196946910243053E-1    2.789477325534169E-1    9.790741478445761E-3    8.291382487957084E-3
 7.058400000000000E8    -1.055814980165989E-2    9.075259071912589E-5    8.555582778666952E-2    9.581483337738883E-1    8.476545093289609E-2    9.547045599011597E-1   -1.327227153778805E-2   -1.295643666262378E-3
 7.928200000000000E8    -2.501247202882653E-3    2.362355976508054E-2    9.525077325882879E-1    1.160978160029584E-1    9.492479626536234E-1    1.117428869419810E-1    4.426181394511813E-3    2.260683052745143E-2
 8.798000000000000E8     4.901601796902719E-3    1.126200112462672E-3    3.049038189660923E-1   -9.075382580562880E-1    3.078934503036428E-1   -9.024782870677456E-1    3.997999090117402E-3   -7.391303385573589E-3
 9.667800000000000E8    -1.293408627072816E-2    2.202105472238730E-2   -8.217279404230137E-1   -4.852146411783155E-1   -8.178161438809224E-1   -4.847712172661484E-1   -1.161193432559025E-2    2.023748418206363E-2
 1.053760000000000E9     1.543651261808497E-2    1.431136505548851E-2   -6.447116483799580E-1    7.010404036872686E-1   -6.407886464685375E-1    6.992843107002804E-1    1.768838477182712E-2    5.464313711917886E-3
 1.140740000000000E9    -1.289073883506982E-2    8.695481856463794E-3    5.543835116654152E-1    7.718014057641985E-1    5.486309439526161E-1    7.714906400188538E-1   -1.452606731449655E-2    6.631930472272229E-3
 1.227720000000000E9     1.018788220471486E-2    2.691209053025238E-2    8.688168448717822E-1   -3.798759172204959E-1    8.657608669188468E-1   -3.772971546995112E-1    1.697511996903050E-2    1.990708643627144E-2
 1.314700000000000E9     2.882372293465385E-5    3.606220576231448E-3   -1.919123822681676E-1   -9.267735077898012E-1   -1.906187391811099E-1   -9.235266545711514E-1   -5.949520007021522E-3   -8.224446440744696E-3
 1.401680000000000E9     1.775685535803262E-3    3.065740274879767E-2   -9.442698918058886E-1   -2.225829872941575E-3   -9.407880913462302E-1   -5.571155709011218E-3    6.163303421828668E-3    2.737109071948830E-2
 1.488660000000000E9     1.627197724113474E-2    5.233558601336355E-3   -1.982481160373280E-1    9.219396952487837E-1   -1.988867430810757E-1    9.181203363733683E-1    1.243342450187151E-2   -1.150510932414602E-2
 1.575640000000000E9    -8.439348802737320E-3    2.313662234751700E-2    8.600526110068084E-1    3.822038502571712E-1    8.546276128582910E-1    3.852233465797443E-1   -1.065992530965104E-2    2.074311600591363E-2
 1.662620000000000E9     2.548157050443189E-2    1.921808363126049E-2    5.518504683061054E-1   -7.605115755961994E-1    5.529822459168746E-1   -7.548971426545347E-1    2.468853642594949E-2    6.267049230692334E-3
 1.749600000000000E9    -5.035849814767790E-3    8.790223524223817E-3   -6.294922549601312E-1   -6.950820079782462E-1   -6.236658047303810E-1   -6.962301866096100E-1   -1.374487262939258E-2    3.050479906245976E-3
 1.836580000000000E9     1.813102824628706E-2    3.282665376176879E-2   -8.096871588458852E-1    4.721401817517681E-1   -8.079627042047249E-1    4.639097629124177E-1    1.962259715991930E-2    2.523470877004623E-2
 1.923560000000000E9     8.483343467920103E-3    4.174153869578812E-3    2.938009772466476E-1    8.889703555884143E-1    2.873801919142885E-1    8.844934922695074E-1   -3.441471601428041E-3   -1.072731131869932E-2
 2.010540000000000E9     6.615638580767469E-3    3.570423409687574E-2    9.283472972883461E-1   -1.046351993942346E-1    9.227165578748026E-1   -9.709067774407446E-2    1.266575081512872E-3    3.346970052400330E-2
 2.097520000000000E9     2.461755450038279E-2    7.827304244976080E-3    9.230657201170264E-2   -9.276663579756164E-1    9.661123792782650E-2   -9.229364168347987E-1    1.579086188649770E-2   -8.951325949249658E-3
 2.184500000000000E9    -3.823199795136553E-3    2.591465591061358E-2   -8.867492413141140E-1   -2.818491889619494E-1   -8.827203373570983E-1   -2.845590633704407E-1   -1.459786087789770E-2    2.426988966931461E-2
 2.271480000000000E9     3.221544895683255E-2    2.175973367373264E-2   -4.598050396490049E-1    8.075209589593241E-1   -4.599584827307800E-1    8.025174486568311E-1    2.914232778435499E-2    7.416586232772783E-3
 2.358460000000000E9    -2.981096362598371E-3    1.390669452752260E-2    6.953123311892274E-1    6.142512224416422E-1    6.894353622330822E-1    6.147074178452637E-1   -1.867413917931658E-2    6.590522356841138E-3
 2.445440000000000E9     3.057118915607587E-2    3.203795166615656E-2    7.452837037778576E-1   -5.497312287681526E-1    7.435485143255968E-1   -5.440583418405129E-1    2.142907850285750E-2    3.303574098381894E-2
 2.532420000000000E9     1.063201542757950E-2    1.937087058685345E-3   -3.833182101589085E-1   -8.418682585888343E-1   -3.780309438428599E-1   -8.397197169881183E-1   -2.350148720516036E-3   -5.407520062133284E-3
 2.619400000000000E9     1.326328798110730E-2    3.724165523949117E-2   -9.011735450937726E-1    1.998142912590690E-1   -8.987563754390888E-1    1.953087059178367E-1    2.134063331633844E-3    3.968402929145787E-2
 2.706380000000000E9     3.285415404035980E-2    5.678421334126001E-3    9.224923673116092E-3    9.229712982809584E-1    3.766994081554528E-3    9.186905214279029E-1    2.128841156103549E-2   -3.295206421868589E-3
 2.793360000000000E9     2.112310686422786E-4    3.154948295431090E-2    9.032893563376502E-1    1.811579758422489E-1    8.984950716791161E-1    1.850370894903877E-1   -1.576765133853325E-2    3.214144615926719E-2
 2.880340000000000E9     4.853446654965678E-2    1.770324243471926E-2    3.647379105072776E-1   -8.447798814314708E-1    3.665499826025479E-1   -8.379509892027232E-1    3.610315819662575E-2    2.207599839153823E-2
 2.967320000000000E9    -3.162703411838746E-3    8.080478034230430E-3   -7.496870952695487E-1   -5.297369894405853E-1   -7.422053107544638E-1   -5.334158659798484E-1   -1.133067172500449E-2    1.168605332427373E-2
 3.054300000000000E9     4.261369708170556E-2    3.391460317553693E-2   -6.721089772227213E-1    6.210494107978063E-1   -6.749015609409084E-1    6.137821547017320E-1    2.699976104131827E-2    4.275792827476377E-2
 3.141280000000000E9     1.216776413551293E-2   -9.893703585378218E-3    4.690862492515622E-1    7.877796820178234E-1    4.593941838760191E-1    7.884270722682837E-1    5.497369246500018E-3    7.266235942809465E-4
 3.228260000000000E9     2.325938672015523E-2    4.534074804137310E-2    8.654823446550133E-1   -2.958342785727952E-1    8.663881359993507E-1   -2.860415065731496E-1    1.247901281713158E-2    5.391857216433827E-2
 3.315240000000000E9     4.246262522824196E-2   -5.052220155902464E-3   -1.093792988348809E-1   -9.076403360960655E-1   -9.849003082746784E-2   -9.052266618926328E-1    3.228659612956548E-2    2.180561118236189E-3
 3.402220000000000E9     1.529502942676390E-3    3.104182023542058E-2   -9.095924073873882E-1   -7.881104260762944E-2   -9.041077957310240E-1   -9.041000557126108E-2   -5.215579276958836E-3    3.906767224665865E-2
 3.489200000000000E9     6.701531138113466E-2    1.215357150042723E-2   -2.683164176879696E-1    8.701520620960731E-1   -2.767559255180226E-1    8.630362059945660E-1    5.261136722751095E-2    3.050649892543613E-2
 3.576180000000000E9    -4.191565415229165E-3   -5.236643757600794E-3    7.964930998203218E-1    4.435692012359401E-1    7.884177761530763E-1    4.490138799296450E-1    5.401774435268230E-3    1.258400950195359E-2
 3.663160000000000E9     6.494251285632313E-2    4.143064845182647E-2    5.947560179017962E-1   -6.856255843767816E-1    6.008696510839787E-1   -6.750636289951005E-1    5.041449335598591E-2    5.686007195469575E-2
 3.750140000000000E9     2.134876044889247E-2   -3.330552150818838E-2   -5.455570413189965E-1   -7.268940778341795E-1   -5.362967223339496E-1   -7.290981044314857E-1    3.593177313253877E-2   -1.748012595041398E-3
 3.837120000000000E9     2.834302756924782E-2    4.752324105757204E-2   -8.217707638366234E-1    3.829473897512110E-1   -8.205281568937034E-1    3.759087027245618E-1    2.897433148410311E-2    5.384904675189561E-2
 3.924100000000000E9     5.924867484288136E-2   -2.901447744169314E-2    2.012778548637193E-1    8.827341212377723E-1    1.932897283633452E-1    8.800650288124198E-1    6.138788183391776E-2    4.967077283160191E-3
 4.011080000000000E9    -9.503980726295901E-3    2.227508082082780E-2    9.059147288220255E-1   -1.573979002202903E-2    9.013066024952363E-1   -8.859222271124229E-3    1.918457108602293E-2    3.080135288477544E-2
 4.098060000000000E9     8.800646100014975E-2    6.703093747847999E-3    1.748753678396670E-1   -8.856183483872734E-1    1.783459284884590E-1   -8.804718029294617E-1    8.156365391404202E-2    2.504074048779382E-2
 4.185040000000000E9    -8.829092354526821E-3   -2.505566468270379E-2   -8.327530531059665E-1   -3.540256264160608E-1   -8.265881766462591E-1   -3.583306478748400E-1    3.014157145324179E-2    7.483044754380969E-4
 4.272020000000000E9     7.761572947334563E-2    4.273014353736028E-2   -5.151105507104714E-1    7.380101752464310E-1   -5.168443731728030E-1    7.322111578152516E-1    7.389145436089646E-2    4.919662244847302E-2
 4.359000000000000E9     2.583780039435600E-2   -6.525218649213105E-2    6.126628840892770E-1    6.602747263805745E-1    6.072165217380250E-1    6.601052590922232E-1    6.846049201688541E-2   -1.085556572666072E-2
 4.445980000000000E9     1.839730255569672E-2    5.313215688450398E-2    7.697643002297252E-1   -4.656329552528743E-1    7.694243809180213E-1   -4.586464212465578E-1    5.594666551257839E-2    3.603596588374249E-2
 4.532960000000000E9     7.806035808654736E-2   -5.239785600025106E-2   -2.911836001544366E-1   -8.481589868419213E-1   -2.841624958184543E-1   -8.463652120053190E-1    9.556506773954078E-2   -6.877047912124186E-3
 4.619940000000000E9    -2.889593051215723E-2    1.878124557896513E-2   -8.916673316231767E-1    1.128872582579397E-1   -8.889653352081506E-1    1.046577619499184E-1    4.851099362446034E-2    1.462032447179596E-2
 4.706920000000000E9     1.146447116059127E-1    3.565010836867052E-3   -7.474649457418434E-2    8.892150443671701E-1   -8.365832132269685E-2    8.854115895825296E-1    1.191619621718017E-1    6.499492033801443E-3
 4.793900000000000E9    -2.759308637194828E-2   -5.728785934946889E-2    8.558290745599995E-1    2.648817095875757E-1    8.525482069926603E-1    2.651713931068874E-1    6.326212243143906E-2   -2.703556144591936E-2
 4.880880000000000E9     7.623518083408677E-2    6.337850297096834E-2    4.314977088437396E-1   -7.803641051574646E-1    4.298201092099941E-1   -7.768462350327698E-1    1.080263390321444E-1    1.169793072711313E-2
 4.967860000000000E9     3.686010984423749E-2   -9.618184397502536E-2   -6.686466018672031E-1   -5.891054488528429E-1   -6.678978442276251E-1   -5.838474375649255E-1    9.560318221543432E-2   -5.260122360852759E-2
 5.054840000000000E9    -4.473127635828689E-4    5.940843118574293E-2   -7.084220282392740E-1    5.410729957195369E-1   -7.132388855062852E-1    5.315570788853459E-1    8.110257562444489E-2   -3.601615324675355E-3
 5.141820000000000E9     1.029139913999474E-1   -6.613938417574453E-2    3.745531716171712E-1    8.032287986769560E-1    3.688791349902322E-1    8.036832304383253E-1    1.216320376130616E-1   -5.065028594631608E-2
 5.228800000000000E9    -5.669706831376248E-2   -1.033139551156957E-2    8.680212496728094E-1   -1.991498020900228E-1    8.660833991179639E-1   -1.978543916138030E-1    6.965357753631879E-2   -4.576819254688445E-2
 5.315780000000000E9     1.207625434484958E-1    2.022659991753491E-2   -1.837591989731098E-2   -8.834747346073909E-1   -1.318460492208011E-2   -8.827416170880847E-1    1.268813700466915E-1   -5.181650921499181E-2
 5.402760000000000E9    -2.762194305977280E-2   -9.865599386328372E-2   -8.690483027434455E-1   -1.722732680382820E-1   -8.670691018975191E-1   -1.731932742286462E-1    6.847105148573299E-2   -9.524704863705868E-2
 5.489740000000000E9     6.298711898980985E-2    7.504417313861368E-2   -3.445584316339603E-1    8.148815284614522E-1   -3.395444457806728E-1    8.144519479111363E-1    1.046250191555449E-1   -4.518034593994095E-2
 5.576720000000000E9     4.806734682394331E-2   -1.177225631513308E-1    7.200444581516565E-1    5.087231172729775E-1    7.203485751244422E-1    5.036493845534051E-1    9.125007968303019E-2   -1.113126063585077E-1
 5.663700000000000E9    -3.234115749500122E-2    5.678855807119219E-2    6.474862766383596E-1   -6.033764345307855E-1    6.431353131225208E-1   -6.058383095299714E-1    7.170264046772819E-2   -6.725198325894850E-2
 5.750680000000000E9     1.206242405219491E-1   -6.064199580064603E-2   -4.504274478763627E-1   -7.537714423846160E-1   -4.572649374189452E-1   -7.479445590872188E-1    1.045667164423375E-1   -1.136571173843238E-1
 5.837660000000000E9    -8.033617245860808E-2   -4.714862699157797E-2   -8.356277386920971E-1    2.813769317244370E-1   -8.309555020035782E-1    2.902056401451935E-1    4.521601376330070E-2   -1.172317474700952E-1
 5.924640000000000E9     1.086366641873727E-1    3.772343025391399E-2    1.073721765180380E-1    8.721468798051678E-1    1.172878103675397E-1    8.682973892770319E-1    8.788424888003704E-2   -1.108326433318046E-1
 6.011620000000000E9    -2.523220354813633E-2   -1.319760289433747E-1    8.724189017776803E-1    8.215833250833407E-2    8.710364318248980E-1    7.162288383168068E-2    3.768908949596096E-2   -1.531389380499951E-1
 6.098600000000000E9     2.140801493519395E-2    8.030307722585889E-2    2.552055937932795E-1   -8.412840823185039E-1    2.486551114060594E-1   -8.407137603724808E-1    5.322835775420233E-2   -1.085061722936655E-1
 6.185580000000000E9     7.434954973768299E-2   -1.310596427518899E-1   -7.636408239945058E-1   -4.196495271857494E-1   -7.620489109746774E-1   -4.188956895670697E-1    4.476918833610760E-2   -1.717946402403659E-1
 6.272560000000000E9    -8.694625375169764E-2    1.558670498136043E-2   -5.756250393834641E-1    6.610622514210118E-1   -5.734215659988794E-1    6.611179055956468E-1   -5.159195833186339E-3   -1.355771304337439E-1
 6.359540000000000E9     1.131693353981012E-1   -3.354682335926264E-2    5.287935486209741E-1    6.930393176197516E-1    5.298574582675414E-1    6.899101464096816E-1    3.628668029154043E-2   -1.502328438267497E-1
 6.446520000000000E9    -9.845569515727318E-2   -9.417930078998513E-2    7.864015388756710E-1   -3.692908044967376E-1    7.873020228020530E-1   -3.634758997105397E-1   -2.535712257302573E-2   -1.712389468483076E-1
 6.533500000000000E9     5.637172415466794E-2    6.396055025722854E-2   -2.023005314092162E-1   -8.474308711315519E-1   -1.990225065999304E-1   -8.467624372597850E-1   -3.798817145169740E-3   -1.375775665329519E-1
 6.620480000000000E9    -1.331047870336341E-2   -1.552273485738864E-1   -8.650043414496149E-1    1.922463270695564E-2   -8.621370717058939E-1    1.880340456004541E-2   -2.785234565669931E-2   -1.853382748883670E-1
 6.707460000000000E9    -5.758857052297870E-2    8.010077328240375E-2   -1.595886030092711E-1    8.551698796866520E-1   -1.642329698218468E-1    8.525334209868458E-1   -4.671578548345101E-2   -1.531407878262333E-1
 6.794440000000000E9     9.262650097229874E-2   -1.090742063404351E-1    8.000273212828356E-1    3.239000385113631E-1    7.969689682249911E-1    3.313178706666476E-1   -4.404924575243906E-2   -1.865344102249362E-1
 6.881420000000000E9    -1.392825154402396E-1   -2.483629148717962E-2    4.884946513524883E-1   -7.119848500620825E-1    4.969725907135611E-1   -7.064282430607445E-1   -1.048624967265683E-1   -1.685494339143102E-1
 6.968400000000000E9     9.598541548524193E-2    1.596755233023101E-2   -5.999829405319551E-1   -6.255502200885923E-1   -5.971002465253837E-1   -6.248026878834154E-1   -7.320364998730873E-2   -1.517522152790755E-1
 7.055380000000000E9    -1.064565932489119E-1   -1.388678219172954E-1   -7.290294117565277E-1    4.524221161860809E-1   -7.313626358447634E-1    4.437308728061703E-1   -1.280428729380581E-1   -1.858120869911193E-1
 7.142360000000000E9    -3.157558253212886E-3    1.010329733238739E-1    2.960566057617669E-1    8.118390101890186E-1    2.829175527329300E-1    8.150344022165465E-1   -1.212562327020069E-1   -1.282882804125781E-1
 7.229340000000000E9     1.472228388824590E-2   -1.649618708866555E-1    8.461705974978649E-1   -1.253608178590407E-1    8.470063690760607E-1   -1.141701036896103E-1   -1.368380797785302E-1   -1.799563934377586E-1
 7.316320000000000E9    -1.468481957661814E-1    5.865851877005474E-2    6.293869903535466E-2   -8.534645467618736E-1    7.168441741313990E-2   -8.518780251144992E-1   -1.902787876072765E-1   -1.228375161330193E-1
 7.403300000000000E9     1.083830011689121E-1   -4.125181234981527E-2   -8.259991104666166E-1   -2.309038514432726E-1   -8.228431640112596E-1   -2.390049807765445E-1   -1.616399854671312E-1   -1.227226007417147E-1
 7.490280000000000E9    -1.667036637897436E-1   -7.880113216060464E-2   -3.969813231426124E-1    7.504634827479686E-1   -4.036675048584142E-1    7.455543760253260E-1   -2.172936142377551E-1   -1.148489407257423E-1
 7.577260000000000E9     5.087589318652801E-2    9.336078110775625E-2    6.573781683279528E-1    5.476078834885406E-1    6.491679500133547E-1    5.541540368442515E-1   -1.888060965826519E-1   -6.724063275889677E-2
 7.664240000000000E9    -7.341102104821416E-2   -1.664493382673023E-1    6.623147341589574E-1   -5.273250018828264E-1    6.654935097179194E-1   -5.191168963530886E-1   -2.211614052291185E-1   -1.078391946331641E-1
 7.751220000000000E9    -9.469804626124140E-2    1.261779646927077E-1   -3.715814287186358E-1   -7.629000298181728E-1   -3.629303412870272E-1   -7.652363892075305E-1   -2.302284302850086E-1   -2.712879722998672E-2
 7.838200000000000E9     6.402770914369049E-2   -1.172857906635552E-1   -8.206779270614754E-1    2.163771712443016E-1   -8.226947771807719E-1    2.050250917754970E-1   -2.079899717427061E-1   -6.245576869077440E-2
